date Thu Jun 7 03:24:52 pm 2012
base hex  timestamps absolute
internal events logged
// version 7.5.1
Begin Triggerblock Thu Jun 7 03:24:52 pm 2012
1475.958625 1  185             Rx   d 8 00 00 00 00 00 00 00 00  Length = 240000 BitCount = 124
1475.958895 1  385             Rx   d 8 00 00 00 00 00 00 19 03  Length = 240000 BitCount = 124
1475.959161 1  188             Rx   d 8 49 2B 02 00 00 00 00 00  Length = 236000 BitCount = 122
1475.959410 1  189             Rx   d 8 00 00 00 00 00 00 00 00  Length = 240000 BitCount = 124
1475.959650 1  18A             Rx   d 8 49 2B 02 00 00 00 00 00  Length = 232000 BitCount = 120
1475.959880 1  209             Rx   d 8 BF 0C 4D 2B CA 0C C5 0C  Length = 222000 BitCount = 115
1475.960128 1  187             Rx   d 8 00 00 00 00 00 00 00 00  Length = 240000 BitCount = 124
1475.960380 1  18B             Rx   d 8 00 00 00 00 00 00 00 00  Length = 244000 BitCount = 126
1475.960624 1  18C             Rx   d 8 49 2B 02 00 00 00 00 00  Length = 236000 BitCount = 122
1475.960872 1  18D             Rx   d 8 00 00 00 00 00 00 00 00  Length = 240000 BitCount = 124
1475.961112 1  18E             Rx   d 8 49 2B 02 00 00 00 00 00  Length = 232000 BitCount = 120
1475.961344 1  207             Rx   d 8 BD 0C 32 40 CA 0C C4 0C  Length = 224000 BitCount = 116
1475.961576 1  20B             Rx   d 8 C0 0C 5A 05 C9 0C C4 0C  Length = 224000 BitCount = 116
1475.961806 1  20D             Rx   d 8 C2 0C 16 02 C9 0C C5 0C  Length = 222000 BitCount = 115
1475.962042 1  287             Rx   d 8 10 01 11 03 10 04 06 06  Length = 228000 BitCount = 118
1475.962278 1  289             Rx   d 8 0F 07 10 01 0F 04 06 06  Length = 228000 BitCount = 118
1475.962514 1  28B             Rx   d 8 10 02 11 01 10 04 06 06  Length = 228000 BitCount = 118
1475.962748 1  28D             Rx   d 8 0F 09 10 01 0F 04 06 06  Length = 226000 BitCount = 117
1475.962978 1  307             Rx   d 8 86 FD 42 15 AE 00 21 2E  Length = 222000 BitCount = 115
1475.963210 1  309             Rx   d 8 D0 FD 43 15 B0 00 21 2E  Length = 224000 BitCount = 116
1475.963440 1  30B             Rx   d 8 9E FD 41 15 AE 00 21 2E  Length = 222000 BitCount = 115
1475.963670 1  30D             Rx   d 8 A6 FD 43 15 B0 00 21 2E  Length = 222000 BitCount = 115
1475.963906 1  387             Rx   d 8 40 01 00 0F 80 04 95 26  Length = 228000 BitCount = 118
1475.964140 1  389             Rx   d 8 40 01 00 0F 60 04 95 29  Length = 226000 BitCount = 117
1475.964380 1  38B             Rx   d 8 40 01 00 0F 80 04 95 2A  Length = 232000 BitCount = 120
1475.964616 1  38D             Rx   d 8 40 01 00 0F 60 04 95 27  Length = 228000 BitCount = 118
1475.964844 1  407             Rx   d 8 14 AC AC AC A6 A6 AE AE  Length = 220000 BitCount = 114
1475.965074 1  409             Rx   d 8 14 B0 B0 B0 A8 A8 B0 B0  Length = 222000 BitCount = 115
1475.965301 1  40B             Rx   d 8 14 AE AE AE A6 A6 AE AE  Length = 218000 BitCount = 113
1475.965529 1  40D             Rx   d 8 14 AE AE AE A8 A8 B0 B0  Length = 220000 BitCount = 114
1475.966093 2  440             Rx   d 4 00 02 00 00  Length = 168000 BitCount = 88
1475.966227 2  3FF             Rx   d 2 DD 0A  Length = 126000 BitCount = 67
1475.972656 1  707             Rx   d 1 05  Length = 108000 BitCount = 58
1475.976083 2  440             Rx   d 4 00 02 00 00  Length = 168000 BitCount = 88
1475.976217 2  3FF             Rx   d 2 E2 0A  Length = 126000 BitCount = 67
1475.978348 1  50              Rx   d 0  Length = 92000 BitCount = 50
1475.978618 1  185             Rx   d 8 00 00 00 00 00 00 00 00  Length = 240000 BitCount = 124
1475.978886 1  385             Rx   d 8 00 00 00 00 00 00 01 04  Length = 238000 BitCount = 123
1475.979138 1  18B             Rx   d 8 00 00 00 00 00 00 00 00  Length = 244000 BitCount = 126
1475.979384 1  188             Rx   d 8 49 2C 02 00 00 00 00 00  Length = 238000 BitCount = 123
1475.979632 1  189             Rx   d 8 00 00 00 00 00 00 00 00  Length = 240000 BitCount = 124
1475.979872 1  18A             Rx   d 8 49 2C 02 00 00 00 00 00  Length = 232000 BitCount = 120
1475.980121 1  187             Rx   d 8 00 00 00 00 00 00 00 00  Length = 240000 BitCount = 124
1475.980363 1  18C             Rx   d 8 49 2C 02 00 00 00 00 00  Length = 234000 BitCount = 121
1475.980611 1  18D             Rx   d 8 00 00 00 00 00 00 00 00  Length = 240000 BitCount = 124
1475.980853 1  18E             Rx   d 8 49 2C 02 00 00 00 00 00  Length = 234000 BitCount = 121
1475.981085 1  207             Rx   d 8 BD 0C 32 40 CA 0C C4 0C  Length = 224000 BitCount = 116
1475.981313 1  209             Rx   d 8 BF 0C 36 15 C9 0C C4 0C  Length = 220000 BitCount = 114
1475.981543 1  20B             Rx   d 8 BF 0C 5A 05 C9 0C C4 0C  Length = 222000 BitCount = 115
1475.981777 1  20D             Rx   d 8 C2 0C 18 02 C9 0C C4 0C  Length = 226000 BitCount = 117
1475.982013 1  287             Rx   d 8 10 01 11 03 10 04 06 06  Length = 228000 BitCount = 118
1475.982250 1  289             Rx   d 8 0F 07 10 01 0F 04 06 06  Length = 228000 BitCount = 118
1475.982486 1  28B             Rx   d 8 10 02 11 01 10 04 06 06  Length = 228000 BitCount = 118
1475.982720 1  28D             Rx   d 8 0F 09 10 01 0F 04 06 06  Length = 226000 BitCount = 117
1475.982950 1  307             Rx   d 8 88 FD 42 15 AE 00 21 2E  Length = 222000 BitCount = 115
1475.983178 1  309             Rx   d 8 D4 FD 42 15 B0 00 21 2E  Length = 220000 BitCount = 114
1475.983412 1  30B             Rx   d 8 A0 FD 41 15 AE 00 21 2E  Length = 226000 BitCount = 117
1475.983640 1  30D             Rx   d 8 A4 FD 43 15 B0 00 21 2E  Length = 220000 BitCount = 114
1475.983878 1  387             Rx   d 8 40 01 00 0F 80 04 95 27  Length = 230000 BitCount = 119
1475.984112 1  389             Rx   d 8 40 01 00 0F 60 04 95 2A  Length = 226000 BitCount = 117
1475.984348 1  38B             Rx   d 8 40 01 00 0F 80 04 95 2B  Length = 228000 BitCount = 118
1475.984582 1  38D             Rx   d 8 40 01 00 0F 60 04 95 28  Length = 226000 BitCount = 117
1475.984810 1  407             Rx   d 8 14 AC AC AC A6 A6 AE AE  Length = 220000 BitCount = 114
1475.985040 1  409             Rx   d 8 14 B0 B0 B0 A8 A8 B0 B0  Length = 222000 BitCount = 115
1475.985266 1  40B             Rx   d 8 14 AE AE AE A6 A6 AE AE  Length = 218000 BitCount = 113
1475.985494 1  40D             Rx   d 8 14 AE AE AE A8 A8 B0 B0  Length = 220000 BitCount = 114
1475.986098 2  440             Rx   d 4 00 02 00 00  Length = 168000 BitCount = 88
1475.986244 2  3FF             Rx   d 2 E2 0A  Length = 126000 BitCount = 67
1475.996112 2  440             Rx   d 4 00 02 00 00  Length = 168000 BitCount = 88
1475.996246 2  3FF             Rx   d 2 E7 0A  Length = 126000 BitCount = 67
1475.997000 2  644             Rx   d 2 00 00  Length = 126000 BitCount = 67
1475.998347 1  50              Rx   d 0  Length = 92000 BitCount = 50
1475.998617 1  185             Rx   d 8 00 00 00 00 00 00 00 00  Length = 240000 BitCount = 124
1475.998885 1  385             Rx   d 8 00 00 00 00 00 00 00 05  Length = 238000 BitCount = 123
1475.999133 1  187             Rx   d 8 00 00 00 00 00 00 00 00  Length = 240000 BitCount = 124
1475.999376 1  188             Rx   d 8 49 2D 02 00 00 00 00 00  Length = 234000 BitCount = 121
1475.999624 1  18D             Rx   d 8 00 00 00 00 00 00 00 00  Length = 240000 BitCount = 124
1475.999864 1  18A             Rx   d 8 49 2D 02 00 00 00 00 00  Length = 232000 BitCount = 120
1476.000088 1  207             Rx   d 8 BD 0C 32 42 CB 0C C5 0C  Length = 216000 BitCount = 112
1476.000340 1  18B             Rx   d 8 00 00 00 00 00 00 00 00  Length = 244000 BitCount = 126
1476.000588 1  189             Rx   d 8 00 00 00 00 00 00 00 00  Length = 240000 BitCount = 124
1476.000830 1  18C             Rx   d 8 49 2D 02 00 00 00 00 00  Length = 234000 BitCount = 121
1476.001060 1  209             Rx   d 8 BF 0C 36 16 C9 0C C4 0C  Length = 222000 BitCount = 115
1476.001300 1  18E             Rx   d 8 49 2D 02 00 00 00 00 00  Length = 232000 BitCount = 120
1476.001532 1  20B             Rx   d 8 BF 0C 5A 04 C8 0C C4 0C  Length = 224000 BitCount = 116
1476.001764 1  20D             Rx   d 8 C2 0C 16 42 C9 0C C4 0C  Length = 224000 BitCount = 116
1476.002000 1  287             Rx   d 8 10 01 11 03 10 04 06 06  Length = 228000 BitCount = 118
1476.002236 1  289             Rx   d 8 0F 07 10 01 0F 04 06 06  Length = 228000 BitCount = 118
1476.002472 1  28B             Rx   d 8 10 02 11 01 10 04 06 06  Length = 228000 BitCount = 118
1476.002706 1  28D             Rx   d 8 0F 09 10 01 0F 04 06 06  Length = 226000 BitCount = 117
1476.002936 1  307             Rx   d 8 8A FD 43 15 AE 00 21 2E  Length = 222000 BitCount = 115
1476.003166 1  309             Rx   d 8 DA FD 42 15 B0 00 21 2E  Length = 222000 BitCount = 115
1476.003396 1  30B             Rx   d 8 A2 FD 40 15 AE 00 21 2E  Length = 222000 BitCount = 115
1476.003624 1  30D             Rx   d 8 AA FD 43 15 B0 00 21 2E  Length = 220000 BitCount = 114
1476.003862 1  387             Rx   d 8 40 01 00 0F 80 04 95 28  Length = 230000 BitCount = 119
1476.004098 1  389             Rx   d 8 40 01 00 0F 60 04 95 2B  Length = 228000 BitCount = 118
1476.004334 1  38B             Rx   d 8 40 01 00 0F 80 04 95 2C  Length = 228000 BitCount = 118
1476.004568 1  38D             Rx   d 8 40 01 00 0F 60 04 95 29  Length = 226000 BitCount = 117
1476.004796 1  407             Rx   d 8 14 AC AC AC A6 A6 AE AE  Length = 220000 BitCount = 114
1476.005026 1  409             Rx   d 8 14 B0 B0 B0 A8 A8 B0 B0  Length = 222000 BitCount = 115
1476.005252 1  40B             Rx   d 8 14 AE AE AE A6 A6 AE AE  Length = 218000 BitCount = 113
1476.005480 1  40D             Rx   d 8 14 AE AE AE A8 A8 B0 B0  Length = 220000 BitCount = 114
1476.005594 1  709             Rx   d 1 05  Length = 106000 BitCount = 57
1476.006114 2  440             Rx   d 4 00 02 00 00  Length = 168000 BitCount = 88
1476.006248 2  3FF             Rx   d 2 E8 0A  Length = 126000 BitCount = 67
1476.012152 2  646             Rx   d 8 53 4F 43 20 20 20 20 38  Length = 224000 BitCount = 116
1476.016118 2  440             Rx   d 4 00 02 00 00  Length = 168000 BitCount = 88
1476.016267 2  3FF             Rx   d 2 EC 0A  Length = 128000 BitCount = 68
1476.018356 1  50              Rx   d 0  Length = 92000 BitCount = 50
1476.018626 1  185             Rx   d 8 00 00 00 00 00 00 00 00  Length = 240000 BitCount = 124
1476.019088 1  385             Rx   d 8 00 00 00 00 00 00 01 00  Length = 238000 BitCount = 123
1476.019338 1  189             Rx   d 8 00 00 00 00 00 00 00 00  Length = 240000 BitCount = 124
1476.019582 1  188             Rx   d 8 49 2E 02 00 00 00 00 00  Length = 236000 BitCount = 122
1476.019812 1  209             Rx   d 8 BF 0C 36 16 C9 0C C4 0C  Length = 222000 BitCount = 115
1476.020060 1  187             Rx   d 8 00 00 00 00 00 00 00 00  Length = 240000 BitCount = 124
1476.020303 1  18A             Rx   d 8 49 2E 02 00 00 00 00 00  Length = 234000 BitCount = 121
1476.020555 1  18B             Rx   d 8 00 00 00 00 00 00 00 00  Length = 244000 BitCount = 126
1476.020801 1  18C             Rx   d 8 49 2E 02 00 00 00 00 00  Length = 238000 BitCount = 123
1476.021025 1  207             Rx   d 8 BD 0C 32 42 CB 0C C5 0C  Length = 216000 BitCount = 112
1476.021265 1  18E             Rx   d 8 49 2E 02 00 00 00 00 00  Length = 232000 BitCount = 120
1476.021497 1  20B             Rx   d 8 BF 0C 5A 04 C8 0C C4 0C  Length = 224000 BitCount = 116
1476.021745 1  18D             Rx   d 8 00 00 00 00 00 00 00 00  Length = 240000 BitCount = 124
1476.021981 1  287             Rx   d 8 10 01 11 03 10 04 06 06  Length = 228000 BitCount = 118
1476.022213 1  20D             Rx   d 8 C2 0C 16 42 C9 0C C4 0C  Length = 224000 BitCount = 116
1476.022450 1  289             Rx   d 8 0F 07 10 01 0F 04 06 06  Length = 228000 BitCount = 118
1476.022686 1  28B             Rx   d 8 10 02 11 01 10 04 06 06  Length = 228000 BitCount = 118
1476.022920 1  28D             Rx   d 8 0F 09 10 01 0F 04 06 06  Length = 226000 BitCount = 117
1476.023152 1  307             Rx   d 8 8C FD 44 15 AE 00 21 2E  Length = 224000 BitCount = 116
1476.023382 1  309             Rx   d 8 DE FD 42 15 B0 00 21 2E  Length = 222000 BitCount = 115
1476.023614 1  30B             Rx   d 8 A4 FD 40 15 AE 00 21 2E  Length = 224000 BitCount = 116
1476.023844 1  30D             Rx   d 8 AC FD 43 15 B0 00 21 2E  Length = 222000 BitCount = 115
1476.024082 1  387             Rx   d 8 40 01 00 0F 80 04 95 29  Length = 230000 BitCount = 119
1476.024316 1  389             Rx   d 8 40 01 00 0F 60 04 96 2C  Length = 226000 BitCount = 117
1476.024552 1  38B             Rx   d 8 40 01 00 0F 80 04 95 2D  Length = 228000 BitCount = 118
1476.024787 1  38D             Rx   d 8 40 01 00 0F 60 04 95 2A  Length = 226000 BitCount = 117
1476.025015 1  407             Rx   d 8 14 AC AC AC A6 A6 AE AE  Length = 220000 BitCount = 114
1476.025245 1  409             Rx   d 8 14 B0 B0 B0 A8 A8 B0 B0  Length = 222000 BitCount = 115
1476.025471 1  40B             Rx   d 8 14 AE AE AE A6 A6 AE AE  Length = 218000 BitCount = 113
1476.025699 1  40D             Rx   d 8 14 AE AE AE A8 A8 B0 B0  Length = 220000 BitCount = 114
1476.026195 2  440             Rx   d 4 00 02 00 00  Length = 168000 BitCount = 88
1476.026331 2  3FF             Rx   d 2 EE 0A  Length = 128000 BitCount = 68
1476.027045 2  644             Rx   d 2 08 00  Length = 128000 BitCount = 68
1476.031743 1  70D             Rx   d 1 05  Length = 106000 BitCount = 57
1476.036131 2  440             Rx   d 4 00 02 00 00  Length = 168000 BitCount = 88
1476.036267 2  3FF             Rx   d 2 F2 0A  Length = 128000 BitCount = 68
1476.037823 1  70B             Rx   d 1 05  Length = 106000 BitCount = 57
1476.038505 1  50              Rx   d 0  Length = 92000 BitCount = 50
1476.038627 2  C0              Rx   d 8 57 02 00 00 00 00 00 00  Length = 238000 BitCount = 123
1476.038775 1  185             Rx   d 8 00 00 00 00 00 00 00 00  Length = 240000 BitCount = 124
1476.039076 2  C1              Rx   d 8 AA 6C 7F C0 03 18 00 01  Length = 228000 BitCount = 118
1476.039115 1  385             Rx   d 8 00 00 00 00 00 00 02 01  Length = 240000 BitCount = 124
1476.039383 1  188             Rx   d 8 49 2F 02 00 00 00 00 00  Length = 238000 BitCount = 123
1476.039647 1  18A             Rx   d 8 49 2F 02 00 00 00 00 00  Length = 234000 BitCount = 121
1476.039977 1  187             Rx   d 8 00 00 00 00 00 00 00 00  Length = 240000 BitCount = 124
1476.040229 1  18B             Rx   d 8 00 00 00 00 00 00 00 00  Length = 244000 BitCount = 126
1476.040478 1  189             Rx   d 8 00 00 00 00 00 00 00 00  Length = 240000 BitCount = 124
1476.040720 1  18C             Rx   d 8 49 2F 02 00 00 00 00 00  Length = 234000 BitCount = 121
1476.040968 1  18D             Rx   d 8 00 00 00 00 00 00 00 00  Length = 240000 BitCount = 124
1476.041208 1  18E             Rx   d 8 49 2F 02 00 00 00 00 00  Length = 232000 BitCount = 120
1476.041440 1  207             Rx   d 8 BE 0C 32 40 CB 0C C5 0C  Length = 224000 BitCount = 116
1476.041666 1  209             Rx   d 8 BF 0C 36 13 C9 0C C5 0C  Length = 218000 BitCount = 113
1476.041896 1  20B             Rx   d 8 BF 0C 5A 05 C9 0C C4 0C  Length = 222000 BitCount = 115
1476.042126 2  646             Rx   d 8 37 25 20 54 65 6D 70 20  Length = 222000 BitCount = 115
1476.042128 1  20D             Rx   d 8 C2 0C 16 02 C8 0C C5 0C  Length = 224000 BitCount = 116
1476.042365 1  287             Rx   d 8 10 01 11 03 10 04 06 06  Length = 228000 BitCount = 118
1476.042601 1  289             Rx   d 8 0F 07 10 01 0F 04 06 06  Length = 228000 BitCount = 118
1476.042837 1  28B             Rx   d 8 10 02 11 01 10 04 06 06  Length = 228000 BitCount = 118
1476.043071 1  28D             Rx   d 8 0F 09 10 01 0F 04 06 06  Length = 226000 BitCount = 117
1476.043303 1  307             Rx   d 8 92 FD 44 15 AE 00 21 2E  Length = 224000 BitCount = 116
1476.043531 1  309             Rx   d 8 DC FD 42 15 B0 00 21 2E  Length = 220000 BitCount = 114
1476.043761 1  30B             Rx   d 8 A6 FD 41 15 AE 00 21 2E  Length = 222000 BitCount = 115
1476.043989 1  30D             Rx   d 8 B0 FD 42 15 B0 00 21 2E  Length = 220000 BitCount = 114
1476.044225 1  387             Rx   d 8 40 01 00 0F 80 04 95 2A  Length = 228000 BitCount = 118
1476.044460 1  389             Rx   d 8 40 01 00 0F 60 04 96 2D  Length = 226000 BitCount = 117
1476.044696 1  38B             Rx   d 8 40 01 00 0F 80 04 95 2E  Length = 228000 BitCount = 118
1476.044932 1  38D             Rx   d 8 40 01 00 0F 60 04 95 2B  Length = 228000 BitCount = 118
1476.045160 1  407             Rx   d 8 14 AC AC AC A6 A6 AE AE  Length = 220000 BitCount = 114
1476.045390 1  409             Rx   d 8 14 B0 B0 B0 A8 A8 B0 B0  Length = 222000 BitCount = 115
1476.045616 1  40B             Rx   d 8 14 AE AE AE A6 A6 AE AE  Length = 218000 BitCount = 113
1476.045844 1  40D             Rx   d 8 14 AE AE AE A8 A8 B0 B0  Length = 220000 BitCount = 114
1476.046216 2  440             Rx   d 4 00 02 00 00  Length = 168000 BitCount = 88
1476.046350 2  3FF             Rx   d 2 F3 0A  Length = 126000 BitCount = 67
1476.056142 2  440             Rx   d 4 00 02 00 00  Length = 168000 BitCount = 88
1476.056282 2  3FF             Rx   d 2 F8 0A  Length = 132000 BitCount = 70
1476.057042 2  644             Rx   d 2 10 00  Length = 124000 BitCount = 66
1476.058351 1  50              Rx   d 0  Length = 92000 BitCount = 50
1476.058621 1  185             Rx   d 8 00 00 00 00 00 00 00 00  Length = 240000 BitCount = 124
1476.059002 1  187             Rx   d 8 00 00 00 00 00 00 00 00  Length = 240000 BitCount = 124
1476.059250 1  18D             Rx   d 8 00 00 00 00 00 00 00 00  Length = 240000 BitCount = 124
1476.059498 1  189             Rx   d 8 00 00 00 00 00 00 00 00  Length = 240000 BitCount = 124
1476.059730 1  207             Rx   d 8 BE 0C 32 40 CB 0C C5 0C  Length = 224000 BitCount = 116
1476.059956 1  209             Rx   d 8 BF 0C 49 10 C9 0C C5 0C  Length = 218000 BitCount = 113
1476.060208 1  18B             Rx   d 8 00 00 00 00 00 00 00 00  Length = 244000 BitCount = 126
1476.060444 1  20D             Rx   d 8 C2 0C 16 02 C8 0C C4 0C  Length = 228000 BitCount = 118
1476.060676 1  20B             Rx   d 8 C0 0C 59 05 C9 0C C5 0C  Length = 224000 BitCount = 116
1476.060912 1  287             Rx   d 8 10 01 11 03 10 04 06 06  Length = 228000 BitCount = 118
1476.061148 1  289             Rx   d 8 0F 07 10 01 0F 04 06 06  Length = 228000 BitCount = 118
1476.061384 1  28B             Rx   d 8 10 02 11 01 10 04 06 06  Length = 228000 BitCount = 118
1476.061618 1  28D             Rx   d 8 0F 09 10 01 0F 04 06 06  Length = 226000 BitCount = 117
1476.061851 1  307             Rx   d 8 92 FD 44 15 AE 00 21 2E  Length = 224000 BitCount = 116
1476.062081 1  309             Rx   d 8 E0 FD 43 15 B0 00 21 2E  Length = 222000 BitCount = 115
1476.062311 1  30B             Rx   d 8 A8 FD 41 15 AE 00 21 2E  Length = 222000 BitCount = 115
1476.062539 1  30D             Rx   d 8 AE FD 42 15 B0 00 21 2E  Length = 220000 BitCount = 114
1476.062787 1  385             Rx   d 8 00 00 00 00 00 00 09 02  Length = 240000 BitCount = 124
1476.063025 1  387             Rx   d 8 40 01 00 0F 80 04 96 2B  Length = 230000 BitCount = 119
1476.063269 1  188             Rx   d 8 49 30 02 00 00 00 00 00  Length = 236000 BitCount = 122
1476.063505 1  389             Rx   d 8 40 01 00 0F 60 04 96 2E  Length = 228000 BitCount = 118
1476.063749 1  18A             Rx   d 8 49 30 02 00 00 00 00 00  Length = 236000 BitCount = 122
1476.063985 1  38B             Rx   d 8 40 01 00 0F 80 04 96 2F  Length = 228000 BitCount = 118
1476.064230 1  18C             Rx   d 8 49 30 02 00 00 00 00 00  Length = 236000 BitCount = 122
1476.064466 1  38D             Rx   d 8 40 01 00 0F 60 04 96 2C  Length = 228000 BitCount = 118
1476.064708 1  18E             Rx   d 8 49 30 02 00 00 00 00 00  Length = 234000 BitCount = 121
1476.064936 1  407             Rx   d 8 14 AC AC AC A6 A6 AE AE  Length = 220000 BitCount = 114
1476.065166 1  409             Rx   d 8 14 B0 B0 B0 A8 A8 B0 B0  Length = 222000 BitCount = 115
1476.065392 1  40B             Rx   d 8 14 AE AE AE A6 A6 AE AE  Length = 218000 BitCount = 113
1476.065620 1  40D             Rx   d 8 14 AE AE AE A8 A8 B0 B0  Length = 220000 BitCount = 114
1476.066145 2  440             Rx   d 4 00 02 00 00  Length = 168000 BitCount = 88
1476.066291 2  3FF             Rx   d 2 FB 0A  Length = 126000 BitCount = 67
1476.072029 2  646             Rx   d 4 20 20 31 37  Length = 156000 BitCount = 82
1476.072664 1  707             Rx   d 1 05  Length = 108000 BitCount = 58
1476.076219 2  440             Rx   d 4 00 02 00 00  Length = 168000 BitCount = 88
1476.076357 2  3FF             Rx   d 2 FF 0A  Length = 130000 BitCount = 69
1476.078360 1  50              Rx   d 0  Length = 92000 BitCount = 50
1476.078630 1  185             Rx   d 8 00 00 00 00 00 00 00 00  Length = 240000 BitCount = 124
1476.079048 1  18D             Rx   d 8 00 00 00 00 00 00 00 00  Length = 240000 BitCount = 124
1476.079296 1  385             Rx   d 8 00 00 00 00 00 00 19 03  Length = 240000 BitCount = 124
1476.079544 1  189             Rx   d 8 00 00 00 00 00 00 00 00  Length = 240000 BitCount = 124
1476.079788 1  188             Rx   d 8 49 31 02 00 00 00 00 00  Length = 236000 BitCount = 122
1476.080014 1  209             Rx   d 8 BF 0C 4D 10 C9 0C C5 0C  Length = 218000 BitCount = 113
1476.080254 1  18A             Rx   d 8 49 31 02 00 00 00 00 00  Length = 232000 BitCount = 120
1476.080507 1  18B             Rx   d 8 00 00 00 00 00 00 00 00  Length = 244000 BitCount = 126
1476.080749 1  18C             Rx   d 8 49 31 02 00 00 00 00 00  Length = 234000 BitCount = 121
1476.080979 1  20B             Rx   d 8 C0 0C 59 04 C9 0C C5 0C  Length = 222000 BitCount = 115
1476.081227 1  187             Rx   d 8 00 00 00 00 00 00 00 00  Length = 240000 BitCount = 124
1476.081467 1  18E             Rx   d 8 49 31 02 00 00 00 00 00  Length = 232000 BitCount = 120
1476.081699 1  207             Rx   d 8 BE 0C 32 40 CB 0C C5 0C  Length = 224000 BitCount = 116
1476.081931 1  20D             Rx   d 8 C2 0C 16 02 C8 0C C5 0C  Length = 224000 BitCount = 116
1476.082167 1  287             Rx   d 8 10 01 11 03 10 04 06 06  Length = 228000 BitCount = 118
1476.082401 1  289             Rx   d 8 0F 07 10 01 0F 04 26 06  Length = 226000 BitCount = 117
1476.082637 1  28B             Rx   d 8 10 02 11 01 10 04 06 06  Length = 228000 BitCount = 118
1476.082871 1  28D             Rx   d 8 0F 09 10 01 0F 04 06 06  Length = 226000 BitCount = 117
1476.083103 1  307             Rx   d 8 98 FD 44 15 AE 00 21 2E  Length = 224000 BitCount = 116
1476.083333 1  309             Rx   d 8 E0 FD 43 15 B0 00 21 2E  Length = 222000 BitCount = 115
1476.083563 1  30B             Rx   d 8 A8 FD 41 15 AE 00 21 2E  Length = 222000 BitCount = 115
1476.083793 1  30D             Rx   d 8 B4 FD 43 15 B0 00 21 2E  Length = 222000 BitCount = 115
1476.084029 1  387             Rx   d 8 40 01 00 0F 80 04 96 2C  Length = 228000 BitCount = 118
1476.084265 1  389             Rx   d 8 40 01 00 0F 60 04 96 2F  Length = 228000 BitCount = 118
1476.084505 1  38B             Rx   d 8 40 01 00 0F 80 04 96 30  Length = 232000 BitCount = 120
1476.084739 1  38D             Rx   d 8 40 01 00 0F 60 04 96 2D  Length = 226000 BitCount = 117
1476.084967 1  407             Rx   d 8 14 AC AC AC A6 A6 AE AE  Length = 220000 BitCount = 114
1476.085197 1  409             Rx   d 8 14 B0 B0 B0 A8 A8 B0 B0  Length = 222000 BitCount = 115
1476.085423 1  40B             Rx   d 8 14 AE AE AE A6 A6 AE AE  Length = 218000 BitCount = 113
1476.085651 1  40D             Rx   d 8 14 AE AE AE A8 A8 B0 B0  Length = 220000 BitCount = 114
1476.086153 2  440             Rx   d 4 00 02 00 00  Length = 168000 BitCount = 88
1476.086291 2  3FF             Rx   d 2 FF 0A  Length = 130000 BitCount = 69
1476.087045 2  644             Rx   d 2 00 01  Length = 126000 BitCount = 67
1476.096239 2  440             Rx   d 4 00 02 00 00  Length = 168000 BitCount = 88
1476.096378 2  3FF             Rx   d 2 00 0B  Length = 130000 BitCount = 69
1476.098340 1  50              Rx   d 0  Length = 92000 BitCount = 50
1476.098611 1  185             Rx   d 8 00 00 00 00 00 00 00 00  Length = 240000 BitCount = 124
1476.098879 1  385             Rx   d 8 00 00 00 00 00 00 01 04  Length = 238000 BitCount = 123
1476.099131 1  18B             Rx   d 8 00 00 00 00 00 00 00 00  Length = 244000 BitCount = 126
1476.099375 1  188             Rx   d 8 49 32 02 00 00 00 00 00  Length = 236000 BitCount = 122
1476.099623 1  189             Rx   d 8 00 00 00 00 00 00 00 00  Length = 240000 BitCount = 124
1476.099863 1  18A             Rx   d 8 49 32 02 00 00 00 00 00  Length = 232000 BitCount = 120
1476.100112 1  187             Rx   d 8 00 00 00 00 00 00 00 00  Length = 240000 BitCount = 124
1476.100356 1  18C             Rx   d 8 49 32 02 00 00 00 00 00  Length = 236000 BitCount = 122
1476.100604 1  18D             Rx   d 8 00 00 00 00 00 00 00 00  Length = 240000 BitCount = 124
1476.100844 1  18E             Rx   d 8 49 32 02 00 00 00 00 00  Length = 232000 BitCount = 120
1476.101078 1  207             Rx   d 8 BE 0C 32 40 CB 0C C6 0C  Length = 226000 BitCount = 117
1476.101304 1  209             Rx   d 8 BF 0C 4D 10 C9 0C C5 0C  Length = 218000 BitCount = 113
1476.101538 1  20B             Rx   d 8 C0 0C 5A 04 C9 0C C5 0C  Length = 226000 BitCount = 117
1476.101774 1  20D             Rx   d 8 C2 0C 16 02 C8 0C C4 0C  Length = 228000 BitCount = 118
1476.102010 1  287             Rx   d 8 10 01 11 03 10 04 06 06  Length = 228000 BitCount = 118
1476.102117 2  646             Rx   d 8 41 6D 70 73 20 2D 31 34  Length = 220000 BitCount = 114
1476.102244 1  289             Rx   d 8 0F 07 10 01 0F 04 26 06  Length = 226000 BitCount = 117
1476.102480 1  28B             Rx   d 8 10 02 11 01 10 04 06 06  Length = 228000 BitCount = 118
1476.102714 1  28D             Rx   d 8 0F 09 10 01 0F 04 06 06  Length = 226000 BitCount = 117
1476.102946 1  307             Rx   d 8 96 FD 44 15 AE 00 21 2E  Length = 224000 BitCount = 116
1476.103177 1  309             Rx   d 8 E0 FD 43 15 B0 00 21 2E  Length = 222000 BitCount = 115
1476.103407 1  30B             Rx   d 8 A8 FD 41 15 AE 00 21 2E  Length = 222000 BitCount = 115
1476.103637 1  30D             Rx   d 8 B4 FD 43 15 B0 00 21 2E  Length = 222000 BitCount = 115
1476.103875 1  387             Rx   d 8 40 01 00 0F 80 04 96 2D  Length = 230000 BitCount = 119
1476.104111 1  389             Rx   d 8 40 01 00 0F 60 04 96 30  Length = 228000 BitCount = 118
1476.104347 1  38B             Rx   d 8 40 01 00 0F 80 04 96 31  Length = 228000 BitCount = 118
1476.104581 1  38D             Rx   d 8 40 01 00 0F 60 04 96 2E  Length = 226000 BitCount = 117
1476.104809 1  407             Rx   d 8 14 AC AC AC A6 A6 AE AE  Length = 220000 BitCount = 114
1476.105039 1  409             Rx   d 8 14 B0 B0 B0 A8 A8 B0 B0  Length = 222000 BitCount = 115
1476.105265 1  40B             Rx   d 8 14 AE AE AE A6 A6 AE AE  Length = 218000 BitCount = 113
1476.105493 1  40D             Rx   d 8 14 AE AE AE A8 A8 B0 B0  Length = 220000 BitCount = 114
1476.105607 1  709             Rx   d 1 05  Length = 106000 BitCount = 57
1476.106164 2  440             Rx   d 4 00 02 00 00  Length = 168000 BitCount = 88
1476.106300 2  3FF             Rx   d 2 FE 0A  Length = 128000 BitCount = 68
1476.116172 2  440             Rx   d 4 00 02 00 00  Length = 168000 BitCount = 88
1476.116318 2  3FF             Rx   d 2 00 0B  Length = 130000 BitCount = 69
1476.117048 2  644             Rx   d 2 08 01  Length = 126000 BitCount = 67
1476.118354 1  50              Rx   d 0  Length = 92000 BitCount = 50
1476.118624 1  185             Rx   d 8 00 00 00 00 00 00 00 00  Length = 240000 BitCount = 124
1476.119082 1  385             Rx   d 8 00 00 00 00 00 00 00 05  Length = 238000 BitCount = 123
1476.119335 1  18B             Rx   d 8 00 00 00 00 00 00 00 00  Length = 244000 BitCount = 126
1476.119579 1  188             Rx   d 8 49 33 02 00 00 00 00 00  Length = 236000 BitCount = 122
1476.119811 1  20B             Rx   d 8 C0 0C 5A 05 CA 0C C5 0C  Length = 224000 BitCount = 116
1476.120059 1  187             Rx   d 8 00 00 00 00 00 00 00 00  Length = 240000 BitCount = 124
1476.120301 1  18A             Rx   d 8 49 33 02 00 00 00 00 00  Length = 234000 BitCount = 121
1476.120549 1  189             Rx   d 8 00 00 00 00 00 00 00 00  Length = 240000 BitCount = 124
1476.120791 1  18C             Rx   d 8 49 33 02 00 00 00 00 00  Length = 234000 BitCount = 121
1476.121039 1  18D             Rx   d 8 00 00 00 00 00 00 00 00  Length = 240000 BitCount = 124
1476.121279 1  18E             Rx   d 8 49 33 02 00 00 00 00 00  Length = 232000 BitCount = 120
1476.121511 1  207             Rx   d 8 BE 0C 32 40 CB 0C C5 0C  Length = 224000 BitCount = 116
1476.121739 1  209             Rx   d 8 BF 0C 4D 10 C9 0C C6 0C  Length = 220000 BitCount = 114
1476.121973 1  20D             Rx   d 8 C1 0C 18 02 C8 0C C4 0C  Length = 226000 BitCount = 117
1476.122209 1  287             Rx   d 8 10 01 11 03 10 04 06 06  Length = 228000 BitCount = 118
1476.122443 1  289             Rx   d 8 0F 07 10 01 0F 04 26 06  Length = 226000 BitCount = 117
1476.122679 1  28B             Rx   d 8 10 02 11 01 10 04 06 06  Length = 228000 BitCount = 118
1476.122913 1  28D             Rx   d 8 0F 09 10 01 0F 04 06 06  Length = 226000 BitCount = 117
1476.123145 1  307             Rx   d 8 98 FD 44 15 AE 00 21 2E  Length = 224000 BitCount = 116
1476.123375 1  309             Rx   d 8 E0 FD 43 15 B0 00 21 2E  Length = 222000 BitCount = 115
1476.123603 1  30B             Rx   d 8 AA FD 43 15 AE 00 21 2E  Length = 220000 BitCount = 114
1476.123831 1  30D             Rx   d 8 B4 FD 42 15 B0 00 21 2E  Length = 220000 BitCount = 114
1476.124067 1  387             Rx   d 8 40 01 00 0F 80 04 96 2E  Length = 228000 BitCount = 118
1476.124301 1  389             Rx   d 8 40 01 00 0F 60 04 96 31  Length = 226000 BitCount = 117
1476.124539 1  38B             Rx   d 8 40 01 00 0F 80 04 96 32  Length = 230000 BitCount = 119
1476.124773 1  38D             Rx   d 8 40 01 00 0F 60 04 96 2F  Length = 226000 BitCount = 117
1476.125001 1  407             Rx   d 8 14 AC AC AC A6 A6 AE AE  Length = 220000 BitCount = 114
1476.125231 1  409             Rx   d 8 14 B0 B0 B0 A8 A8 B0 B0  Length = 222000 BitCount = 115
1476.125457 1  40B             Rx   d 8 14 AE AE AE A6 A6 AE AE  Length = 218000 BitCount = 113
1476.125685 1  40D             Rx   d 8 14 AE AE AE A8 A8 B0 B0  Length = 220000 BitCount = 114
1476.126258 2  440             Rx   d 4 00 02 00 00  Length = 168000 BitCount = 88
1476.126396 2  3FF             Rx   d 2 FF 0A  Length = 130000 BitCount = 69
1476.131659 1  70D             Rx   d 1 05  Length = 106000 BitCount = 57
1476.132116 2  646             Rx   d 8 36 20 20 56 6F 6C 74 73  Length = 220000 BitCount = 114
1476.136258 2  440             Rx   d 4 00 02 00 00  Length = 168000 BitCount = 88
1476.136397 2  3FF             Rx   d 2 00 0B  Length = 130000 BitCount = 69
1476.137759 1  70B             Rx   d 1 05  Length = 106000 BitCount = 57
1476.138367 1  50              Rx   d 0  Length = 92000 BitCount = 50
1476.138637 1  185             Rx   d 8 00 00 00 00 00 00 00 00  Length = 240000 BitCount = 124
1476.139081 1  385             Rx   d 8 00 00 00 00 00 00 01 00  Length = 238000 BitCount = 123
1476.139329 1  189             Rx   d 8 00 00 00 00 00 00 00 00  Length = 240000 BitCount = 124
1476.139573 1  188             Rx   d 8 49 34 02 00 00 00 00 00  Length = 236000 BitCount = 122
1476.139825 1  18B             Rx   d 8 00 00 00 00 00 00 00 00  Length = 244000 BitCount = 126
1476.140073 1  187             Rx   d 8 00 00 00 00 00 00 00 00  Length = 240000 BitCount = 124
1476.140314 1  18A             Rx   d 8 49 34 02 00 00 00 00 00  Length = 232000 BitCount = 120
1476.140562 1  18D             Rx   d 8 00 00 00 00 00 00 00 00  Length = 240000 BitCount = 124
1476.140804 1  18C             Rx   d 8 49 34 02 00 00 00 00 00  Length = 234000 BitCount = 121
1476.141036 1  207             Rx   d 8 BE 0C 32 40 CB 0C C5 0C  Length = 224000 BitCount = 116
1476.141276 1  18E             Rx   d 8 49 34 02 00 00 00 00 00  Length = 232000 BitCount = 120
1476.141502 1  209             Rx   d 8 BF 0C 4D 0E C9 0C C5 0C  Length = 218000 BitCount = 113
1476.141732 1  20B             Rx   d 8 C1 0C 59 05 CA 0C C5 0C  Length = 222000 BitCount = 115
1476.141966 1  20D             Rx   d 8 C1 0C 18 02 C8 0C C4 0C  Length = 226000 BitCount = 117
1476.142202 1  287             Rx   d 8 10 01 11 03 10 04 06 06  Length = 228000 BitCount = 118
1476.142436 1  289             Rx   d 8 0F 07 10 01 0F 04 26 06  Length = 226000 BitCount = 117
1476.142672 1  28B             Rx   d 8 10 02 11 01 10 04 06 06  Length = 228000 BitCount = 118
1476.142906 1  28D             Rx   d 8 0F 09 10 01 0F 04 06 06  Length = 226000 BitCount = 117
1476.143138 1  307             Rx   d 8 96 FD 42 15 AE 00 21 2E  Length = 224000 BitCount = 116
1476.143369 1  309             Rx   d 8 E0 FD 43 15 B0 00 21 2E  Length = 222000 BitCount = 115
1476.143597 1  30B             Rx   d 8 A8 FD 43 15 AE 00 21 2E  Length = 220000 BitCount = 114
1476.143825 1  30D             Rx   d 8 B4 FD 42 15 B0 00 21 2E  Length = 220000 BitCount = 114
1476.144063 1  387             Rx   d 8 40 01 00 0F 80 04 96 2F  Length = 230000 BitCount = 119
1476.144297 1  389             Rx   d 8 40 01 00 0F 60 04 96 32  Length = 226000 BitCount = 117
1476.144533 1  38B             Rx   d 8 40 01 00 0F 80 04 96 33  Length = 228000 BitCount = 118
1476.144771 1  38D             Rx   d 8 40 01 00 0F 60 04 96 30  Length = 230000 BitCount = 119
1476.144999 1  407             Rx   d 8 14 AC AC AC A6 A6 AE AE  Length = 220000 BitCount = 114
1476.145229 1  409             Rx   d 8 14 B0 B0 B0 A8 A8 B0 B0  Length = 222000 BitCount = 115
1476.145456 1  40B             Rx   d 8 14 AE AE AE A6 A6 AE AE  Length = 218000 BitCount = 113
1476.145684 1  40D             Rx   d 8 14 AE AE AE A8 A8 B0 B0  Length = 220000 BitCount = 114
1476.146277 2  440             Rx   d 4 00 02 00 00  Length = 168000 BitCount = 88
1476.146415 2  3FF             Rx   d 2 FF 0A  Length = 130000 BitCount = 69
1476.147041 2  644             Rx   d 2 10 01  Length = 124000 BitCount = 66
1476.156275 2  440             Rx   d 4 00 02 00 00  Length = 168000 BitCount = 88
1476.156413 2  3FF             Rx   d 2 00 0B  Length = 130000 BitCount = 69
1476.158337 1  50              Rx   d 0  Length = 92000 BitCount = 50
1476.158607 1  185             Rx   d 8 00 00 00 00 00 00 00 00  Length = 240000 BitCount = 124
1476.158877 1  385             Rx   d 8 00 00 00 00 00 00 02 01  Length = 240000 BitCount = 124
1476.159141 1  188             Rx   d 8 49 35 02 00 00 00 00 00  Length = 234000 BitCount = 121
1476.159389 1  189             Rx   d 8 00 00 00 00 00 00 00 00  Length = 240000 BitCount = 124
1476.159632 1  18A             Rx   d 8 49 35 02 00 00 00 00 00  Length = 234000 BitCount = 121
1476.159864 1  209             Rx   d 8 C0 0C 36 16 CA 0C C5 0C  Length = 224000 BitCount = 116
1476.160112 1  187             Rx   d 8 00 00 00 00 00 00 00 00  Length = 240000 BitCount = 124
1476.160364 1  18B             Rx   d 8 00 00 00 00 00 00 00 00  Length = 244000 BitCount = 126
1476.160612 1  18C             Rx   d 8 49 35 02 00 00 00 00 00  Length = 240000 BitCount = 124
1476.160860 1  18D             Rx   d 8 00 00 00 00 00 00 00 00  Length = 240000 BitCount = 124
1476.161102 1  18E             Rx   d 8 49 35 02 00 00 00 00 00  Length = 234000 BitCount = 121
1476.161330 1  207             Rx   d 8 BE 0C 2B 42 CB 0C C5 0C  Length = 220000 BitCount = 114
1476.161561 1  20B             Rx   d 8 C1 0C 59 05 CA 0C C5 0C  Length = 222000 BitCount = 115
1476.161789 1  20D             Rx   d 8 C1 0C 18 42 C9 0C C5 0C  Length = 220000 BitCount = 114
1476.162025 1  287             Rx   d 8 10 01 11 03 10 04 06 06  Length = 228000 BitCount = 118
1476.162051 2  646             Rx   d 4 20 33 34 30  Length = 158000 BitCount = 83
1476.162259 1  289             Rx   d 8 0F 07 10 01 0F 04 26 06  Length = 226000 BitCount = 117
1476.162495 1  28B             Rx   d 8 10 02 11 01 10 04 06 06  Length = 228000 BitCount = 118
1476.162729 1  28D             Rx   d 8 0F 09 10 01 0F 04 06 06  Length = 226000 BitCount = 117
1476.162959 1  307             Rx   d 8 9C FD 42 15 AE 00 21 2E  Length = 222000 BitCount = 115
1476.163189 1  309             Rx   d 8 E4 FD 43 15 B0 00 21 2E  Length = 222000 BitCount = 115
1476.163418 1  30B             Rx   d 8 A8 FD 43 15 AE 00 21 2E  Length = 220000 BitCount = 114
1476.163648 1  30D             Rx   d 8 BA FD 43 15 B0 00 21 2E  Length = 222000 BitCount = 115
1476.163884 1  387             Rx   d 8 40 01 00 0F 80 04 96 30  Length = 228000 BitCount = 118
1476.164120 1  389             Rx   d 8 40 01 00 0F 60 04 96 33  Length = 228000 BitCount = 118
1476.164356 1  38B             Rx   d 8 40 01 00 0F 80 04 96 34  Length = 228000 BitCount = 118
1476.164590 1  38D             Rx   d 8 40 01 00 0F 60 04 96 31  Length = 226000 BitCount = 117
1476.164818 1  407             Rx   d 8 14 AC AC AC A6 A6 AE AE  Length = 220000 BitCount = 114
1476.165048 1  409             Rx   d 8 14 B0 B0 B0 A8 A8 B0 B0  Length = 222000 BitCount = 115
1476.165274 1  40B             Rx   d 8 14 AE AE AE A6 A6 AE AE  Length = 218000 BitCount = 113
1476.165502 1  40D             Rx   d 8 14 AE AE AE A8 A8 B0 B0  Length = 220000 BitCount = 114
1476.166281 2  440             Rx   d 4 00 02 00 00  Length = 168000 BitCount = 88
1476.166418 2  3FF             Rx   d 2 FE 0A  Length = 128000 BitCount = 68
1476.172648 1  707             Rx   d 1 05  Length = 108000 BitCount = 58
1476.176294 2  440             Rx   d 4 00 02 00 00  Length = 168000 BitCount = 88
1476.176432 2  3FF             Rx   d 2 00 0B  Length = 130000 BitCount = 69
1476.177044 2  644             Rx   d 2 00 02  Length = 126000 BitCount = 67
1476.178350 1  50              Rx   d 0  Length = 92000 BitCount = 50
1476.178620 1  185             Rx   d 8 00 00 00 00 00 00 00 00  Length = 240000 BitCount = 124
1476.178996 1  187             Rx   d 8 00 00 00 00 00 00 00 00  Length = 240000 BitCount = 124
1476.179248 1  18B             Rx   d 8 00 00 00 00 00 00 00 00  Length = 244000 BitCount = 126
1476.179496 1  189             Rx   d 8 00 00 00 00 00 00 00 00  Length = 240000 BitCount = 124
1476.179744 1  18D             Rx   d 8 00 00 00 00 00 00 00 00  Length = 240000 BitCount = 124
1476.179974 1  207             Rx   d 8 BE 0C 32 42 CB 0C C5 0C  Length = 222000 BitCount = 115
1476.180206 1  209             Rx   d 8 C0 0C 49 16 CA 0C C6 0C  Length = 224000 BitCount = 116
1476.180439 1  20B             Rx   d 8 C1 0C 59 05 CA 0C C6 0C  Length = 224000 BitCount = 116
1476.180667 1  20D             Rx   d 8 C2 0C 16 42 C9 0C C5 0C  Length = 220000 BitCount = 114
1476.180903 1  287             Rx   d 8 10 01 11 03 10 04 06 06  Length = 228000 BitCount = 118
1476.181139 1  289             Rx   d 8 0F 07 10 01 0F 04 06 06  Length = 228000 BitCount = 118
1476.181375 1  28B             Rx   d 8 10 02 11 01 10 04 06 06  Length = 228000 BitCount = 118
1476.181609 1  28D             Rx   d 8 0F 09 10 01 0F 04 06 06  Length = 226000 BitCount = 117
1476.181843 1  307             Rx   d 8 A0 FD 44 15 AE 00 21 2E  Length = 226000 BitCount = 117
1476.182073 1  309             Rx   d 8 E4 FD 44 15 B0 00 21 2E  Length = 222000 BitCount = 115
1476.182302 1  30B             Rx   d 8 B0 FD 43 15 AE 00 21 2E  Length = 220000 BitCount = 114
1476.182530 1  30D             Rx   d 8 B8 FD 43 15 B0 00 21 2E  Length = 220000 BitCount = 114
1476.182778 1  385             Rx   d 8 00 00 00 00 00 00 09 02  Length = 240000 BitCount = 124
1476.183016 1  387             Rx   d 8 40 01 00 0F 80 04 96 31  Length = 230000 BitCount = 119
1476.183258 1  188             Rx   d 8 49 36 02 00 00 00 00 00  Length = 234000 BitCount = 121
1476.183494 1  389             Rx   d 8 40 01 00 0F 60 04 96 34  Length = 228000 BitCount = 118
1476.183734 1  18A             Rx   d 8 49 36 02 00 00 00 00 00  Length = 232000 BitCount = 120
1476.183974 1  38B             Rx   d 8 40 01 00 0F 80 04 96 35  Length = 232000 BitCount = 120
1476.184217 1  18C             Rx   d 8 49 36 02 00 00 00 00 00  Length = 234000 BitCount = 121
1476.184451 1  38D             Rx   d 8 40 01 00 0F 60 04 96 32  Length = 226000 BitCount = 117
1476.184691 1  18E             Rx   d 8 49 36 02 00 00 00 00 00  Length = 232000 BitCount = 120
1476.184919 1  407             Rx   d 8 14 AC AC AC A6 A6 AE AE  Length = 220000 BitCount = 114
1476.185149 1  409             Rx   d 8 14 B0 B0 B0 A8 A8 B0 B0  Length = 222000 BitCount = 115
1476.185375 1  40B             Rx   d 8 14 AE AE AE A6 A6 AE AE  Length = 218000 BitCount = 113
1476.185603 1  40D             Rx   d 8 14 AE AE AE A8 A8 B0 B0  Length = 220000 BitCount = 114
1476.186290 2  440             Rx   d 4 00 02 00 00  Length = 168000 BitCount = 88
1476.186428 2  3FF             Rx   d 2 00 0B  Length = 130000 BitCount = 69
1476.192150 2  646             Rx   d 8 20 20 20 20 20 00 20 20  Length = 234000 BitCount = 121
1476.196288 2  440             Rx   d 4 00 02 00 00  Length = 168000 BitCount = 88
1476.196426 2  3FF             Rx   d 2 FF 0A  Length = 130000 BitCount = 69
1476.198342 1  50              Rx   d 0  Length = 92000 BitCount = 50
1476.198612 1  185             Rx   d 8 00 00 00 00 00 00 00 00  Length = 240000 BitCount = 124
1476.198883 1  385             Rx   d 8 00 00 00 00 00 00 19 03  Length = 240000 BitCount = 124
1476.199131 1  187             Rx   d 8 00 00 00 00 00 00 00 00  Length = 240000 BitCount = 124
1476.199373 1  188             Rx   d 8 49 37 02 00 00 00 00 00  Length = 234000 BitCount = 121
1476.199621 1  189             Rx   d 8 00 00 00 00 00 00 00 00  Length = 240000 BitCount = 124
1476.199863 1  18A             Rx   d 8 49 37 02 00 00 00 00 00  Length = 234000 BitCount = 121
1476.200115 1  18B             Rx   d 8 00 00 00 00 00 00 00 00  Length = 244000 BitCount = 126
1476.200357 1  18C             Rx   d 8 49 37 02 00 00 00 00 00  Length = 234000 BitCount = 121
1476.200605 1  18D             Rx   d 8 00 00 00 00 00 00 00 00  Length = 240000 BitCount = 124
1476.200847 1  18E             Rx   d 8 49 37 02 00 00 00 00 00  Length = 234000 BitCount = 121
1476.201078 1  207             Rx   d 8 BE 0C 32 42 CB 0C C5 0C  Length = 222000 BitCount = 115
1476.201312 1  209             Rx   d 8 C0 0C 4D 16 CA 0C C6 0C  Length = 226000 BitCount = 117
1476.201542 1  20B             Rx   d 8 C1 0C 59 04 C9 0C C5 0C  Length = 222000 BitCount = 115
1476.201772 1  20D             Rx   d 8 C2 0C 16 02 C9 0C C5 0C  Length = 222000 BitCount = 115
1476.202008 1  287             Rx   d 8 10 01 11 03 10 04 06 06  Length = 228000 BitCount = 118
1476.202244 1  289             Rx   d 8 0F 07 10 01 0F 04 06 06  Length = 228000 BitCount = 118
1476.202480 1  28B             Rx   d 8 10 02 11 01 10 04 26 06  Length = 228000 BitCount = 118
1476.202714 1  28D             Rx   d 8 0F 09 10 01 0F 04 06 06  Length = 226000 BitCount = 117
1476.202946 1  307             Rx   d 8 A2 FD 44 15 AE 00 21 2E  Length = 224000 BitCount = 116
1476.203176 1  309             Rx   d 8 E8 FD 44 15 B0 00 21 2E  Length = 222000 BitCount = 115
1476.203404 1  30B             Rx   d 8 B6 FD 42 15 AE 00 21 2E  Length = 220000 BitCount = 114
1476.203636 1  30D             Rx   d 8 BE FD 44 15 B0 00 21 2E  Length = 224000 BitCount = 116
1476.203872 1  387             Rx   d 8 40 01 00 0F 80 04 96 32  Length = 228000 BitCount = 118
1476.204106 1  389             Rx   d 8 40 01 00 0F 60 04 96 35  Length = 226000 BitCount = 117
1476.204342 1  38B             Rx   d 8 40 01 00 0F 80 04 96 36  Length = 228000 BitCount = 118
1476.204576 1  38D             Rx   d 8 40 01 00 0F 60 04 96 33  Length = 226000 BitCount = 117
1476.204805 1  407             Rx   d 8 14 AC AC AC A6 A6 AE AE  Length = 220000 BitCount = 114
1476.205035 1  409             Rx   d 8 14 B0 B0 B0 A8 A8 B0 B0  Length = 222000 BitCount = 115
1476.205261 1  40B             Rx   d 8 14 AE AE AE A6 A6 AE AE  Length = 218000 BitCount = 113
1476.205489 1  40D             Rx   d 8 14 AE AE AE A8 A8 B0 B0  Length = 220000 BitCount = 114
1476.205603 1  709             Rx   d 1 05  Length = 106000 BitCount = 57
1476.206311 2  440             Rx   d 4 00 02 00 00  Length = 168000 BitCount = 88
1476.206449 2  3FF             Rx   d 2 00 0B  Length = 130000 BitCount = 69
1476.206987 2  644             Rx   d 2 08 02  Length = 124000 BitCount = 66
1476.216301 2  440             Rx   d 4 00 02 00 00  Length = 168000 BitCount = 88
1476.216439 2  3FF             Rx   d 2 FF 0A  Length = 130000 BitCount = 69
1476.218342 1  50              Rx   d 0  Length = 92000 BitCount = 50
1476.218612 1  185             Rx   d 8 00 00 00 00 00 00 00 00  Length = 240000 BitCount = 124
1476.218880 1  385             Rx   d 8 00 00 00 00 00 00 01 04  Length = 238000 BitCount = 123
1476.219147 1  188             Rx   d 8 49 38 02 00 00 00 00 00  Length = 236000 BitCount = 122
1476.219411 1  18A             Rx   d 8 49 38 02 00 00 00 00 00  Length = 234000 BitCount = 121
1476.219659 1  189             Rx   d 8 00 00 00 00 00 00 00 00  Length = 240000 BitCount = 124
1476.219901 1  18C             Rx   d 8 49 38 02 00 00 00 00 00  Length = 234000 BitCount = 121
1476.220149 1  187             Rx   d 8 00 00 00 00 00 00 00 00  Length = 240000 BitCount = 124
1476.220397 1  18D             Rx   d 8 00 00 00 00 00 00 00 00  Length = 240000 BitCount = 124
1476.220638 1  18E             Rx   d 8 49 38 02 00 00 00 00 00  Length = 232000 BitCount = 120
1476.220868 1  207             Rx   d 8 BE 0C 32 42 CB 0C C5 0C  Length = 222000 BitCount = 115
1476.221100 1  209             Rx   d 8 C0 0C 4D 10 CA 0C C6 0C  Length = 224000 BitCount = 116
1476.221352 1  18B             Rx   d 8 00 00 00 00 00 00 00 00  Length = 244000 BitCount = 126
1476.221586 1  20D             Rx   d 8 C3 0C 12 02 C9 0C C6 0C  Length = 226000 BitCount = 117
1476.221820 1  20B             Rx   d 8 C0 0C 5A 04 C9 0C C5 0C  Length = 226000 BitCount = 117
1476.222056 1  287             Rx   d 8 10 01 11 03 10 04 06 06  Length = 228000 BitCount = 118
1476.222119 2  646             Rx   d 8 20 20 20 4D 6F 64 65 20  Length = 224000 BitCount = 116
1476.222292 1  289             Rx   d 8 0F 07 10 01 0F 04 06 06  Length = 228000 BitCount = 118
1476.222528 1  28B             Rx   d 8 10 02 11 01 10 04 26 06  Length = 228000 BitCount = 118
1476.222762 1  28D             Rx   d 8 0F 09 10 01 0F 04 06 06  Length = 226000 BitCount = 117
1476.222994 1  307             Rx   d 8 A8 FD 44 15 AE 00 21 2E  Length = 224000 BitCount = 116
1476.223222 1  309             Rx   d 8 EC FD 45 15 B0 00 21 2E  Length = 220000 BitCount = 114
1476.223450 1  30B             Rx   d 8 B4 FD 42 15 AE 00 21 2E  Length = 220000 BitCount = 114
1476.223684 1  30D             Rx   d 8 C0 FD 44 15 B0 00 21 2E  Length = 226000 BitCount = 117
1476.223922 1  387             Rx   d 8 40 01 00 0F 80 04 96 33  Length = 230000 BitCount = 119
1476.224156 1  389             Rx   d 8 40 01 00 0F 60 04 96 36  Length = 226000 BitCount = 117
1476.224392 1  38B             Rx   d 8 40 01 00 0F 80 04 96 37  Length = 228000 BitCount = 118
1476.224626 1  38D             Rx   d 8 40 01 00 0F 60 04 96 34  Length = 226000 BitCount = 117
1476.224854 1  407             Rx   d 8 14 AC AC AC A6 A6 AE AE  Length = 220000 BitCount = 114
1476.225084 1  409             Rx   d 8 14 B0 B0 B0 A8 A8 B0 B0  Length = 222000 BitCount = 115
1476.225311 1  40B             Rx   d 8 14 AE AE AE A6 A6 AE AE  Length = 218000 BitCount = 113
1476.225539 1  40D             Rx   d 8 14 AE AE AE A8 A8 B0 B0  Length = 220000 BitCount = 114
1476.226305 2  440             Rx   d 4 00 02 00 00  Length = 168000 BitCount = 88
1476.226441 2  3FF             Rx   d 2 FE 0A  Length = 128000 BitCount = 68
1476.231668 1  70D             Rx   d 1 05  Length = 106000 BitCount = 57
1476.236321 2  440             Rx   d 4 00 02 00 00  Length = 168000 BitCount = 88
1476.236460 2  3FF             Rx   d 2 FF 0A  Length = 130000 BitCount = 69
1476.236988 2  644             Rx   d 2 10 02  Length = 126000 BitCount = 67
1476.237758 1  70B             Rx   d 1 05  Length = 106000 BitCount = 57
1476.238356 1  50              Rx   d 0  Length = 92000 BitCount = 50
1476.238627 1  185             Rx   d 8 00 00 00 00 00 00 00 00  Length = 240000 BitCount = 124
1476.239077 1  385             Rx   d 8 00 00 00 00 00 00 00 05  Length = 238000 BitCount = 123
1476.239329 1  18B             Rx   d 8 00 00 00 00 00 00 00 00  Length = 244000 BitCount = 126
1476.239575 1  188             Rx   d 8 49 39 02 00 00 00 00 00  Length = 238000 BitCount = 123
1476.239823 1  18D             Rx   d 8 00 00 00 00 00 00 00 00  Length = 240000 BitCount = 124
1476.240071 1  187             Rx   d 8 00 00 00 00 00 00 00 00  Length = 240000 BitCount = 124
1476.240311 1  18A             Rx   d 8 49 39 02 00 00 00 00 00  Length = 232000 BitCount = 120
1476.240560 1  189             Rx   d 8 00 00 00 00 00 00 00 00  Length = 240000 BitCount = 124
1476.240802 1  18C             Rx   d 8 49 39 02 00 00 00 00 00  Length = 234000 BitCount = 121
1476.241032 1  207             Rx   d 8 BE 0C 32 42 CB 0C C6 0C  Length = 222000 BitCount = 115
1476.241272 1  18E             Rx   d 8 49 39 02 00 00 00 00 00  Length = 232000 BitCount = 120
1476.241504 1  209             Rx   d 8 C0 0C 4D 10 CA 0C C6 0C  Length = 224000 BitCount = 116
1476.241736 1  20B             Rx   d 8 C0 0C 5A 05 CA 0C C5 0C  Length = 224000 BitCount = 116
1476.241970 1  20D             Rx   d 8 C3 0C 12 02 C9 0C C6 0C  Length = 226000 BitCount = 117
1476.242206 1  287             Rx   d 8 10 01 11 03 10 04 06 06  Length = 228000 BitCount = 118
1476.242442 1  289             Rx   d 8 0F 07 10 01 0F 04 06 06  Length = 228000 BitCount = 118
1476.242678 1  28B             Rx   d 8 10 02 11 01 10 04 26 06  Length = 228000 BitCount = 118
1476.242912 1  28D             Rx   d 8 0F 09 10 01 0F 04 06 06  Length = 226000 BitCount = 117
1476.243144 1  307             Rx   d 8 AC FD 44 15 AE 00 21 2E  Length = 224000 BitCount = 116
1476.243374 1  309             Rx   d 8 EE FD 45 15 B0 00 21 2E  Length = 222000 BitCount = 115
1476.243604 1  30B             Rx   d 8 BE FD 43 15 AE 00 21 2E  Length = 222000 BitCount = 115
1476.243834 1  30D             Rx   d 8 C6 FD 44 15 B0 00 21 2E  Length = 222000 BitCount = 115
1476.244070 1  387             Rx   d 8 40 01 00 0F 80 04 96 34  Length = 228000 BitCount = 118
1476.244306 1  389             Rx   d 8 40 01 00 0F 60 04 96 37  Length = 228000 BitCount = 118
1476.244542 1  38B             Rx   d 8 40 01 00 0F 80 04 96 38  Length = 228000 BitCount = 118
1476.244776 1  38D             Rx   d 8 40 01 00 0F 60 04 96 35  Length = 226000 BitCount = 117
1476.245004 1  407             Rx   d 8 14 AC AC AC A6 A6 AE AE  Length = 220000 BitCount = 114
1476.245234 1  409             Rx   d 8 14 B0 B0 B0 A8 A8 B0 B0  Length = 222000 BitCount = 115
1476.245460 1  40B             Rx   d 8 14 AE AE AE A6 A6 AE AE  Length = 218000 BitCount = 113
1476.245688 1  40D             Rx   d 8 14 AE AE AE A8 A8 B0 B0  Length = 220000 BitCount = 114
1476.246314 2  440             Rx   d 4 00 02 00 00  Length = 168000 BitCount = 88
1476.246452 2  3FF             Rx   d 2 00 0B  Length = 130000 BitCount = 69
1476.252018 2  646             Rx   d 4 20 44 2D 34  Length = 154000 BitCount = 81
1476.256328 2  440             Rx   d 4 00 02 00 00  Length = 168000 BitCount = 88
1476.256466 2  3FF             Rx   d 2 FF 0A  Length = 130000 BitCount = 69
1476.258348 1  50              Rx   d 0  Length = 92000 BitCount = 50
1476.258618 1  185             Rx   d 8 00 00 00 00 00 00 00 00  Length = 240000 BitCount = 124
1476.259076 1  385             Rx   d 8 00 00 00 00 00 00 01 00  Length = 238000 BitCount = 123
1476.259326 1  189             Rx   d 8 00 00 00 00 00 00 00 00  Length = 240000 BitCount = 124
1476.259572 1  188             Rx   d 8 49 3A 02 00 00 00 00 00  Length = 238000 BitCount = 123
1476.259802 1  209             Rx   d 8 C1 0C 36 10 CA 0C C6 0C  Length = 222000 BitCount = 115
1476.260050 1  187             Rx   d 8 00 00 00 00 00 00 00 00  Length = 240000 BitCount = 124
1476.260291 1  18A             Rx   d 8 49 3A 02 00 00 00 00 00  Length = 232000 BitCount = 120
1476.260543 1  18B             Rx   d 8 00 00 00 00 00 00 00 00  Length = 244000 BitCount = 126
1476.260785 1  18C             Rx   d 8 49 3A 02 00 00 00 00 00  Length = 234000 BitCount = 121
1476.261033 1  18D             Rx   d 8 00 00 00 00 00 00 00 00  Length = 240000 BitCount = 124
1476.261273 1  18E             Rx   d 8 49 3A 02 00 00 00 00 00  Length = 232000 BitCount = 120
1476.261505 1  207             Rx   d 8 BE 0C 32 42 CC 0C C6 0C  Length = 224000 BitCount = 116
1476.261735 1  20B             Rx   d 8 C1 0C 59 05 CA 0C C5 0C  Length = 222000 BitCount = 115
1476.261966 1  20D             Rx   d 8 C3 0C 12 42 CA 0C C6 0C  Length = 222000 BitCount = 115
1476.262202 1  287             Rx   d 8 10 01 11 03 10 04 06 06  Length = 228000 BitCount = 118
1476.262438 1  289             Rx   d 8 0F 07 10 01 0F 04 06 06  Length = 228000 BitCount = 118
1476.262674 1  28B             Rx   d 8 10 02 11 01 10 04 26 06  Length = 228000 BitCount = 118
1476.262908 1  28D             Rx   d 8 0F 09 10 01 0F 04 06 06  Length = 226000 BitCount = 117
1476.263138 1  307             Rx   d 8 AA FD 46 15 AE 00 21 2E  Length = 222000 BitCount = 115
1476.263366 1  309             Rx   d 8 EC FD 45 15 B0 00 21 2E  Length = 220000 BitCount = 114
1476.263596 1  30B             Rx   d 8 C0 FD 43 15 AE 00 21 2E  Length = 222000 BitCount = 115
1476.263828 1  30D             Rx   d 8 C8 FD 45 15 B0 00 21 2E  Length = 224000 BitCount = 116
1476.264064 1  387             Rx   d 8 40 01 00 0F 80 04 96 35  Length = 228000 BitCount = 118
1476.264298 1  389             Rx   d 8 40 01 00 0F 60 04 96 38  Length = 226000 BitCount = 117
1476.264534 1  38B             Rx   d 8 40 01 00 0F 80 04 96 39  Length = 228000 BitCount = 118
1476.264768 1  38D             Rx   d 8 40 01 00 0F 60 04 96 36  Length = 226000 BitCount = 117
1476.264996 1  407             Rx   d 8 14 AC AC AC A6 A6 AE AE  Length = 220000 BitCount = 114
1476.265226 1  409             Rx   d 8 14 B0 B0 B0 A8 A8 B0 B0  Length = 222000 BitCount = 115
1476.265452 1  40B             Rx   d 8 14 AE AE AE A6 A6 AE AE  Length = 218000 BitCount = 113
1476.265680 1  40D             Rx   d 8 14 AE AE AE A8 A8 B0 B0  Length = 220000 BitCount = 114
1476.266322 2  440             Rx   d 4 00 02 00 00  Length = 168000 BitCount = 88
1476.266460 2  3FF             Rx   d 2 00 0B  Length = 130000 BitCount = 69
1476.267039 2  644             Rx   d 2 00 03  Length = 128000 BitCount = 68
1476.272668 1  707             Rx   d 1 05  Length = 108000 BitCount = 58
1476.276329 2  440             Rx   d 4 00 02 00 00  Length = 168000 BitCount = 88
1476.276467 2  3FF             Rx   d 2 FF 0A  Length = 130000 BitCount = 69
1476.278332 1  50              Rx   d 0  Length = 92000 BitCount = 50
1476.278602 1  185             Rx   d 8 00 00 00 00 00 00 00 00  Length = 240000 BitCount = 124
1476.278872 1  385             Rx   d 8 00 00 00 00 00 00 02 01  Length = 240000 BitCount = 124
1476.279120 1  18D             Rx   d 8 00 00 00 00 00 00 00 00  Length = 240000 BitCount = 124
1476.279363 1  188             Rx   d 8 49 3B 02 00 00 00 00 00  Length = 234000 BitCount = 121
1476.279611 1  189             Rx   d 8 00 00 00 00 00 00 00 00  Length = 240000 BitCount = 124
1476.279853 1  18A             Rx   d 8 49 3B 02 00 00 00 00 00  Length = 234000 BitCount = 121
1476.280101 1  187             Rx   d 8 00 00 00 00 00 00 00 00  Length = 240000 BitCount = 124
1476.280353 1  18B             Rx   d 8 00 00 00 00 00 00 00 00  Length = 244000 BitCount = 126
1476.280595 1  18C             Rx   d 8 49 3B 02 00 00 00 00 00  Length = 234000 BitCount = 121
1476.280828 1  207             Rx   d 8 C0 0C 2A 40 CC 0C C7 0C  Length = 224000 BitCount = 116
1476.281068 1  18E             Rx   d 8 49 3B 02 00 00 00 00 00  Length = 232000 BitCount = 120
1476.281300 1  209             Rx   d 8 C0 0C 4D 10 CA 0C C6 0C  Length = 224000 BitCount = 116
1476.281530 1  20B             Rx   d 8 C1 0C 59 04 C9 0C C5 0C  Length = 222000 BitCount = 115
1476.281762 1  20D             Rx   d 8 C3 0C 16 42 CA 0C C6 0C  Length = 224000 BitCount = 116
1476.281998 1  287             Rx   d 8 10 01 11 03 10 04 06 06  Length = 228000 BitCount = 118
1476.282123 2  646             Rx   d 8 20 20 20 20 20 20 20 20  Length = 232000 BitCount = 120
1476.282234 1  289             Rx   d 8 0F 07 10 01 0F 04 06 06  Length = 228000 BitCount = 118
1476.282470 1  28B             Rx   d 8 10 02 11 01 10 04 26 06  Length = 228000 BitCount = 118
1476.282704 1  28D             Rx   d 8 0F 09 10 01 0F 04 06 06  Length = 226000 BitCount = 117
1476.282936 1  307             Rx   d 8 A8 FD 46 15 AE 00 21 2E  Length = 224000 BitCount = 116
1476.283164 1  309             Rx   d 8 EC FD 45 15 B0 00 21 2E  Length = 220000 BitCount = 114
1476.283394 1  30B             Rx   d 8 BC FD 42 15 AE 00 21 2E  Length = 222000 BitCount = 115
1476.283626 1  30D             Rx   d 8 C8 FD 45 15 B0 00 21 2E  Length = 224000 BitCount = 116
1476.283866 1  387             Rx   d 8 40 01 00 0F 80 04 96 36  Length = 232000 BitCount = 120
1476.284100 1  389             Rx   d 8 40 01 00 0F 60 04 96 39  Length = 226000 BitCount = 117
1476.284337 1  38B             Rx   d 8 40 01 00 0F 80 04 96 3A  Length = 228000 BitCount = 118
1476.284573 1  38D             Rx   d 8 40 01 00 0F 60 04 96 37  Length = 228000 BitCount = 118
1476.284801 1  407             Rx   d 8 14 AC AC AC A6 A6 AE AE  Length = 220000 BitCount = 114
1476.285031 1  409             Rx   d 8 14 B0 B0 B0 A8 A8 B0 B0  Length = 222000 BitCount = 115
1476.285257 1  40B             Rx   d 8 14 AE AE AE A6 A6 AE AE  Length = 218000 BitCount = 113
1476.285485 1  40D             Rx   d 8 14 AE AE AE A8 A8 B0 B0  Length = 220000 BitCount = 114
1476.286349 2  440             Rx   d 4 00 02 00 00  Length = 168000 BitCount = 88
1476.286485 2  3FF             Rx   d 2 FE 0A  Length = 128000 BitCount = 68
1476.296341 2  440             Rx   d 4 00 02 00 00  Length = 168000 BitCount = 88
1476.296479 2  3FF             Rx   d 2 FF 0A  Length = 130000 BitCount = 69
1476.297038 2  644             Rx   d 2 08 03  Length = 124000 BitCount = 66
1476.298346 1  50              Rx   d 0  Length = 92000 BitCount = 50
1476.298616 1  185             Rx   d 8 00 00 00 00 00 00 00 00  Length = 240000 BitCount = 124
1476.299074 1  385             Rx   d 8 00 00 00 00 00 00 09 02  Length = 240000 BitCount = 124
1476.299324 1  189             Rx   d 8 00 00 00 00 00 00 00 00  Length = 240000 BitCount = 124
1476.299568 1  188             Rx   d 8 49 3C 02 00 00 00 00 00  Length = 236000 BitCount = 122
1476.299803 1  209             Rx   d 8 C0 0C 4D 16 CA 0C C6 0C  Length = 226000 BitCount = 117
1476.300051 1  187             Rx   d 8 00 00 00 00 00 00 00 00  Length = 240000 BitCount = 124
1476.300293 1  18A             Rx   d 8 49 3C 02 00 00 00 00 00  Length = 234000 BitCount = 121
1476.300545 1  18B             Rx   d 8 00 00 00 00 00 00 00 00  Length = 244000 BitCount = 126
1476.300789 1  18C             Rx   d 8 49 3C 02 00 00 00 00 00  Length = 236000 BitCount = 122
1476.301037 1  18D             Rx   d 8 00 00 00 00 00 00 00 00  Length = 240000 BitCount = 124
1476.301279 1  18E             Rx   d 8 49 3C 02 00 00 00 00 00  Length = 234000 BitCount = 121
1476.301514 1  207             Rx   d 8 C0 0C 2A 40 CC 0C C6 0C  Length = 226000 BitCount = 117
1476.301744 1  20B             Rx   d 8 C1 0C 59 04 C9 0C C5 0C  Length = 222000 BitCount = 115
1476.301972 1  20D             Rx   d 8 C3 0C 18 42 CA 0C C5 0C  Length = 220000 BitCount = 114
1476.302208 1  287             Rx   d 8 10 01 11 03 10 04 06 06  Length = 228000 BitCount = 118
1476.302444 1  289             Rx   d 8 0F 07 10 01 0F 04 06 06  Length = 228000 BitCount = 118
1476.302680 1  28B             Rx   d 8 10 02 11 01 10 04 06 06  Length = 228000 BitCount = 118
1476.302914 1  28D             Rx   d 8 0F 09 10 01 0F 04 06 06  Length = 226000 BitCount = 117
1476.303146 1  307             Rx   d 8 A8 FD 46 15 AE 00 21 2E  Length = 224000 BitCount = 116
1476.303380 1  309             Rx   d 8 E6 FD 44 15 B0 00 21 2E  Length = 226000 BitCount = 117
1476.303611 1  30B             Rx   d 8 B8 FD 42 15 AE 00 21 2E  Length = 222000 BitCount = 115
1476.303839 1  30D             Rx   d 8 C2 FD 45 15 B0 00 21 2E  Length = 220000 BitCount = 114
1476.304075 1  387             Rx   d 8 40 01 00 0F 80 04 96 37  Length = 228000 BitCount = 118
1476.304311 1  389             Rx   d 8 40 01 00 0F 60 04 96 3A  Length = 228000 BitCount = 118
1476.304549 1  38B             Rx   d 8 40 01 00 0F 80 04 96 3B  Length = 230000 BitCount = 119
1476.304783 1  38D             Rx   d 8 40 01 00 0F 60 04 96 38  Length = 226000 BitCount = 117
1476.305011 1  407             Rx   d 8 14 AC AC AC A6 A6 AE AE  Length = 220000 BitCount = 114
1476.305241 1  409             Rx   d 8 14 B0 B0 B0 A8 A8 B0 B0  Length = 222000 BitCount = 115
1476.305467 1  40B             Rx   d 8 14 AE AE AE A6 A6 AE AE  Length = 218000 BitCount = 113
1476.305695 1  40D             Rx   d 8 14 AE AE AE A8 A8 B0 B0  Length = 220000 BitCount = 114
1476.305809 1  709             Rx   d 1 05  Length = 106000 BitCount = 57
1476.306348 2  440             Rx   d 4 00 02 00 00  Length = 168000 BitCount = 88
1476.306486 2  3FF             Rx   d 2 00 0B  Length = 130000 BitCount = 69
1476.312140 2  646             Rx   d 8 20 20 20 20 20 20 20 20  Length = 232000 BitCount = 120
1476.316366 2  440             Rx   d 4 00 02 00 00  Length = 168000 BitCount = 88
1476.316504 2  3FF             Rx   d 2 FF 0A  Length = 130000 BitCount = 69
1476.318336 1  50              Rx   d 0  Length = 92000 BitCount = 50
1476.318607 1  185             Rx   d 8 00 00 00 00 00 00 00 00  Length = 240000 BitCount = 124
1476.318877 1  385             Rx   d 8 00 00 00 00 00 00 19 03  Length = 240000 BitCount = 124
1476.319143 1  188             Rx   d 8 49 3D 02 00 00 00 00 00  Length = 236000 BitCount = 122
1476.319395 1  18B             Rx   d 8 00 00 00 00 00 00 00 00  Length = 244000 BitCount = 126
1476.319643 1  189             Rx   d 8 00 00 00 00 00 00 00 00  Length = 240000 BitCount = 124
1476.319883 1  18A             Rx   d 8 49 3D 02 00 00 00 00 00  Length = 232000 BitCount = 120
1476.320131 1  187             Rx   d 8 00 00 00 00 00 00 00 00  Length = 240000 BitCount = 124
1476.320373 1  18C             Rx   d 8 49 3D 02 00 00 00 00 00  Length = 234000 BitCount = 121
1476.320622 1  18D             Rx   d 8 00 00 00 00 00 00 00 00  Length = 240000 BitCount = 124
1476.320862 1  18E             Rx   d 8 49 3D 02 00 00 00 00 00  Length = 232000 BitCount = 120
1476.321092 1  207             Rx   d 8 BF 0C 32 42 CC 0C C6 0C  Length = 222000 BitCount = 115
1476.321322 1  209             Rx   d 8 C0 0C 4D 2B CA 0C C5 0C  Length = 222000 BitCount = 115
1476.321552 1  20B             Rx   d 8 C1 0C 59 04 C9 0C C5 0C  Length = 222000 BitCount = 115
1476.321782 1  20D             Rx   d 8 C3 0C 12 08 C9 0C C5 0C  Length = 222000 BitCount = 115
1476.322016 1  287             Rx   d 8 10 01 11 03 10 04 26 06  Length = 226000 BitCount = 117
1476.322252 1  289             Rx   d 8 0F 07 10 01 0F 04 06 06  Length = 228000 BitCount = 118
1476.322488 1  28B             Rx   d 8 10 02 11 01 10 04 06 06  Length = 228000 BitCount = 118
1476.322722 1  28D             Rx   d 8 0F 09 10 01 0F 04 06 06  Length = 226000 BitCount = 117
1476.322954 1  307             Rx   d 8 A0 FD 46 15 AE 00 21 2E  Length = 224000 BitCount = 116
1476.323189 1  309             Rx   d 8 E6 FD 44 15 B0 00 21 2E  Length = 226000 BitCount = 117
1476.323417 1  30B             Rx   d 8 B4 FD 42 15 AE 00 21 2E  Length = 220000 BitCount = 114
1476.323649 1  30D             Rx   d 8 C0 FD 43 15 B0 00 21 2E  Length = 224000 BitCount = 116
1476.323889 1  387             Rx   d 8 40 01 00 0F 80 04 96 38  Length = 232000 BitCount = 120
1476.324125 1  389             Rx   d 8 40 01 00 0F 60 04 96 3B  Length = 228000 BitCount = 118
1476.324363 1  38B             Rx   d 8 40 01 00 0F 80 04 96 3C  Length = 230000 BitCount = 119
1476.324599 1  38D             Rx   d 8 40 01 00 0F 60 04 96 39  Length = 228000 BitCount = 118
1476.324827 1  407             Rx   d 8 14 AC AC AC A6 A6 AE AE  Length = 220000 BitCount = 114
1476.325057 1  409             Rx   d 8 14 B0 B0 B0 A8 A8 B0 B0  Length = 222000 BitCount = 115
1476.325283 1  40B             Rx   d 8 14 AE AE AE A6 A6 AE AE  Length = 218000 BitCount = 113
1476.325511 1  40D             Rx   d 8 14 AE AE AE A8 A8 B0 B0  Length = 220000 BitCount = 114
1476.326356 2  440             Rx   d 4 00 02 00 00  Length = 168000 BitCount = 88
1476.326492 2  3FF             Rx   d 2 FE 0A  Length = 128000 BitCount = 68
1476.326981 2  644             Rx   d 2 10 03  Length = 124000 BitCount = 66
1476.331655 1  70D             Rx   d 1 05  Length = 106000 BitCount = 57
1476.336379 2  440             Rx   d 4 00 02 00 00  Length = 168000 BitCount = 88
1476.336517 2  3FF             Rx   d 2 00 0B  Length = 130000 BitCount = 69
1476.337749 1  70B             Rx   d 1 05  Length = 106000 BitCount = 57
1476.338357 1  50              Rx   d 0  Length = 92000 BitCount = 50
1476.338627 1  185             Rx   d 8 00 00 00 00 00 00 00 00  Length = 240000 BitCount = 124
1476.339071 1  385             Rx   d 8 00 00 00 00 00 00 01 04  Length = 238000 BitCount = 123
1476.339337 1  188             Rx   d 8 49 3E 02 00 00 00 00 00  Length = 236000 BitCount = 122
1476.339585 1  189             Rx   d 8 00 00 00 00 00 00 00 00  Length = 240000 BitCount = 124
1476.339827 1  18A             Rx   d 8 49 3E 02 00 00 00 00 00  Length = 234000 BitCount = 121
1476.340076 1  187             Rx   d 8 00 00 00 00 00 00 00 00  Length = 240000 BitCount = 124
1476.340328 1  18B             Rx   d 8 00 00 00 00 00 00 00 00  Length = 244000 BitCount = 126
1476.340574 1  18C             Rx   d 8 49 3E 02 00 00 00 00 00  Length = 238000 BitCount = 123
1476.340822 1  18D             Rx   d 8 00 00 00 00 00 00 00 00  Length = 240000 BitCount = 124
1476.341064 1  18E             Rx   d 8 49 3E 02 00 00 00 00 00  Length = 234000 BitCount = 121
1476.341294 1  207             Rx   d 8 BF 0C 32 42 CC 0C C6 0C  Length = 222000 BitCount = 115
1476.341524 1  209             Rx   d 8 C0 0C 36 2B CA 0C C5 0C  Length = 222000 BitCount = 115
1476.341758 1  20B             Rx   d 8 C0 0C 5A 04 C9 0C C5 0C  Length = 226000 BitCount = 117
1476.341986 1  20D             Rx   d 8 C2 0C 16 42 C9 0C C5 0C  Length = 220000 BitCount = 114
1476.342041 2  646             Rx   d 4 20 20 20 20  Length = 160000 BitCount = 84
1476.342220 1  287             Rx   d 8 10 01 11 03 10 04 26 06  Length = 226000 BitCount = 117
1476.342456 1  289             Rx   d 8 0F 07 10 01 0F 04 06 06  Length = 228000 BitCount = 118
1476.342692 1  28B             Rx   d 8 10 02 11 01 10 04 06 06  Length = 228000 BitCount = 118
1476.342926 1  28D             Rx   d 8 0F 09 10 01 0F 04 06 06  Length = 226000 BitCount = 117
1476.343158 1  307             Rx   d 8 9E FD 46 15 AE 00 21 2E  Length = 224000 BitCount = 116
1476.343388 1  309             Rx   d 8 E0 FD 43 15 B0 00 21 2E  Length = 222000 BitCount = 115
1476.343617 1  30B             Rx   d 8 AC FD 42 15 AE 00 21 2E  Length = 220000 BitCount = 114
1476.343849 1  30D             Rx   d 8 BC FD 43 15 B0 00 21 2E  Length = 224000 BitCount = 116
1476.344087 1  387             Rx   d 8 40 01 00 0F 80 04 96 39  Length = 230000 BitCount = 119
1476.344323 1  389             Rx   d 8 40 01 00 0F 60 04 96 3C  Length = 228000 BitCount = 118
1476.344559 1  38B             Rx   d 8 40 01 00 0F 80 04 96 3D  Length = 228000 BitCount = 118
1476.344793 1  38D             Rx   d 8 40 01 00 0F 60 04 96 3A  Length = 226000 BitCount = 117
1476.345021 1  407             Rx   d 8 14 AC AC AC A6 A6 AE AE  Length = 220000 BitCount = 114
1476.345251 1  409             Rx   d 8 14 B0 B0 B0 A8 A8 B0 B0  Length = 222000 BitCount = 115
1476.345477 1  40B             Rx   d 8 14 AE AE AE A6 A6 AE AE  Length = 218000 BitCount = 113
1476.345705 1  40D             Rx   d 8 14 AE AE AE A8 A8 B0 B0  Length = 220000 BitCount = 114
1476.346367 2  440             Rx   d 4 00 02 00 00  Length = 168000 BitCount = 88
1476.346505 2  3FF             Rx   d 2 00 0B  Length = 130000 BitCount = 69
1476.356373 2  440             Rx   d 4 00 02 00 00  Length = 168000 BitCount = 88
1476.356511 2  3FF             Rx   d 2 00 0B  Length = 130000 BitCount = 69
1476.357031 2  644             Rx   d 2 00 04  Length = 124000 BitCount = 66
1476.358338 1  50              Rx   d 0  Length = 92000 BitCount = 50
1476.358608 1  185             Rx   d 8 00 00 00 00 00 00 00 00  Length = 240000 BitCount = 124
1476.359070 1  385             Rx   d 8 00 00 00 00 00 00 00 05  Length = 238000 BitCount = 123
1476.359339 1  188             Rx   d 8 49 3F 02 00 00 00 00 00  Length = 238000 BitCount = 123
1476.359587 1  189             Rx   d 8 00 00 00 00 00 00 00 00  Length = 240000 BitCount = 124
1476.359829 1  18A             Rx   d 8 49 3F 02 00 00 00 00 00  Length = 234000 BitCount = 121
1476.360077 1  187             Rx   d 8 00 00 00 00 00 00 00 00  Length = 240000 BitCount = 124
1476.360329 1  18B             Rx   d 8 00 00 00 00 00 00 00 00  Length = 244000 BitCount = 126
1476.360573 1  18C             Rx   d 8 49 3F 02 00 00 00 00 00  Length = 236000 BitCount = 122
1476.360821 1  18D             Rx   d 8 00 00 00 00 00 00 00 00  Length = 240000 BitCount = 124
1476.361064 1  18E             Rx   d 8 49 3F 02 00 00 00 00 00  Length = 234000 BitCount = 121
1476.361292 1  207             Rx   d 8 BF 0C 32 40 CB 0C C5 0C  Length = 220000 BitCount = 114
1476.361524 1  209             Rx   d 8 C0 0C 36 2B CA 0C C6 0C  Length = 224000 BitCount = 116
1476.361754 1  20B             Rx   d 8 C0 0C 5A 05 C9 0C C5 0C  Length = 222000 BitCount = 115
1476.361982 1  20D             Rx   d 8 C2 0C 16 42 C9 0C C5 0C  Length = 220000 BitCount = 114
1476.362216 1  287             Rx   d 8 10 01 11 03 10 04 26 06  Length = 226000 BitCount = 117
1476.362452 1  289             Rx   d 8 0F 07 10 01 0F 04 06 06  Length = 228000 BitCount = 118
1476.362688 1  28B             Rx   d 8 10 02 11 01 10 04 06 06  Length = 228000 BitCount = 118
1476.362922 1  28D             Rx   d 8 0F 09 10 01 0F 04 06 06  Length = 226000 BitCount = 117
1476.363154 1  307             Rx   d 8 98 FD 44 15 AE 00 21 2E  Length = 224000 BitCount = 116
1476.363382 1  309             Rx   d 8 D8 FD 43 15 B0 00 21 2E  Length = 220000 BitCount = 114
1476.363614 1  30B             Rx   d 8 AA FD 41 15 AE 00 21 2E  Length = 224000 BitCount = 116
1476.363844 1  30D             Rx   d 8 B6 FD 43 15 B0 00 21 2E  Length = 222000 BitCount = 115
1476.364080 1  387             Rx   d 8 40 01 00 0F 80 04 96 3A  Length = 228000 BitCount = 118
1476.364314 1  389             Rx   d 8 40 01 00 0F 60 04 96 3D  Length = 226000 BitCount = 117
1476.364554 1  38B             Rx   d 8 40 01 00 0F 80 04 96 3E  Length = 232000 BitCount = 120
1476.364790 1  38D             Rx   d 8 40 01 00 0F 60 04 96 3B  Length = 228000 BitCount = 118
1476.365018 1  407             Rx   d 8 14 AC AC AC A6 A6 AE AE  Length = 220000 BitCount = 114
1476.365248 1  409             Rx   d 8 14 B0 B0 B0 A8 A8 B0 B0  Length = 222000 BitCount = 115
1476.365474 1  40B             Rx   d 8 14 AE AE AE A6 A6 AE AE  Length = 218000 BitCount = 113
1476.365702 1  40D             Rx   d 8 14 AE AE AE A8 A8 B0 B0  Length = 220000 BitCount = 114
1476.366378 2  440             Rx   d 4 00 02 00 00  Length = 168000 BitCount = 88
1476.366516 2  3FF             Rx   d 2 00 0B  Length = 130000 BitCount = 69
1476.371960 2  64A             Rx   d 1 01  Length = 106000 BitCount = 57
1476.372652 1  707             Rx   d 1 05  Length = 108000 BitCount = 58
1476.376382 2  440             Rx   d 4 00 02 00 00  Length = 168000 BitCount = 88
1476.376520 2  3FF             Rx   d 2 00 0B  Length = 130000 BitCount = 69
1476.378340 1  50              Rx   d 0  Length = 92000 BitCount = 50
1476.378610 1  185             Rx   d 8 00 00 00 00 00 00 00 00  Length = 240000 BitCount = 124
1476.379068 1  385             Rx   d 8 00 00 00 00 00 00 01 00  Length = 238000 BitCount = 123
1476.379316 1  18D             Rx   d 8 00 00 00 00 00 00 00 00  Length = 240000 BitCount = 124
1476.379561 1  188             Rx   d 8 49 40 02 00 00 00 00 00  Length = 236000 BitCount = 122
1476.379809 1  189             Rx   d 8 00 00 00 00 00 00 00 00  Length = 240000 BitCount = 124
1476.380057 1  187             Rx   d 8 00 00 00 00 00 00 00 00  Length = 240000 BitCount = 124
1476.380299 1  18A             Rx   d 8 49 40 02 00 00 00 00 00  Length = 234000 BitCount = 121
1476.380551 1  18B             Rx   d 8 00 00 00 00 00 00 00 00  Length = 244000 BitCount = 126
1476.380799 1  18C             Rx   d 8 49 40 02 00 00 00 00 00  Length = 240000 BitCount = 124
1476.381027 1  207             Rx   d 8 BF 0C 29 40 CB 0C C5 0C  Length = 220000 BitCount = 114
1476.381270 1  18E             Rx   d 8 49 40 02 00 00 00 00 00  Length = 234000 BitCount = 121
1476.381500 1  209             Rx   d 8 C0 0C 36 2B CA 0C C5 0C  Length = 222000 BitCount = 115
1476.381732 1  20B             Rx   d 8 C0 0C 5A 05 C9 0C C4 0C  Length = 224000 BitCount = 116
1476.381964 1  20D             Rx   d 8 C2 0C 16 42 C9 0C C4 0C  Length = 224000 BitCount = 116
1476.382198 1  287             Rx   d 8 10 01 11 03 10 04 26 06  Length = 226000 BitCount = 117
1476.382434 1  289             Rx   d 8 0F 07 10 01 0F 04 06 06  Length = 228000 BitCount = 118
1476.382670 1  28B             Rx   d 8 10 02 11 01 10 04 06 06  Length = 228000 BitCount = 118
1476.382904 1  28D             Rx   d 8 0F 09 10 01 0F 04 06 06  Length = 226000 BitCount = 117
1476.383136 1  307             Rx   d 8 92 FD 43 15 AE 00 21 2E  Length = 224000 BitCount = 116
1476.383364 1  309             Rx   d 8 DC FD 43 15 B0 00 21 2E  Length = 220000 BitCount = 114
1476.383594 1  30B             Rx   d 8 A6 FD 41 15 AE 00 21 2E  Length = 222000 BitCount = 115
1476.383822 1  30D             Rx   d 8 B2 FD 43 15 B0 00 21 2E  Length = 220000 BitCount = 114
1476.384058 1  387             Rx   d 8 40 01 00 0F 80 04 96 3B  Length = 228000 BitCount = 118
1476.384294 1  389             Rx   d 8 40 01 00 0F 60 04 96 3E  Length = 228000 BitCount = 118
1476.384534 1  38B             Rx   d 8 40 01 00 0F 80 04 96 3F  Length = 232000 BitCount = 120
1476.384770 1  38D             Rx   d 8 40 01 00 0F 60 04 96 3C  Length = 228000 BitCount = 118
1476.384999 1  407             Rx   d 8 14 AC AC AC A6 A6 AE AE  Length = 220000 BitCount = 114
1476.385229 1  409             Rx   d 8 14 B0 B0 B0 A8 A8 B0 B0  Length = 222000 BitCount = 115
1476.385455 1  40B             Rx   d 8 14 AE AE AE A6 A6 AE AE  Length = 218000 BitCount = 113
1476.385683 1  40D             Rx   d 8 14 AE AE AE A8 A8 B0 B0  Length = 220000 BitCount = 114
1476.386396 2  440             Rx   d 4 00 02 00 00  Length = 168000 BitCount = 88
1476.386532 2  3FF             Rx   d 2 FE 0A  Length = 128000 BitCount = 68
1476.396392 2  440             Rx   d 4 00 02 00 00  Length = 168000 BitCount = 88
1476.396530 2  3FF             Rx   d 2 00 0B  Length = 130000 BitCount = 69
1476.398332 1  50              Rx   d 0  Length = 92000 BitCount = 50
1476.398602 1  185             Rx   d 8 00 00 00 00 00 00 00 00  Length = 240000 BitCount = 124
1476.398872 1  385             Rx   d 8 00 00 00 00 00 00 02 01  Length = 240000 BitCount = 124
1476.399139 1  188             Rx   d 8 49 41 02 00 00 00 00 00  Length = 236000 BitCount = 122
1476.399387 1  189             Rx   d 8 00 00 00 00 00 00 00 00  Length = 240000 BitCount = 124
1476.399629 1  18A             Rx   d 8 49 41 02 00 00 00 00 00  Length = 234000 BitCount = 121
1476.399859 1  209             Rx   d 8 C0 0C 36 2B CA 0C C5 0C  Length = 222000 BitCount = 115
1476.400107 1  187             Rx   d 8 00 00 00 00 00 00 00 00  Length = 240000 BitCount = 124
1476.400359 1  18B             Rx   d 8 00 00 00 00 00 00 00 00  Length = 244000 BitCount = 126
1476.400603 1  18C             Rx   d 8 49 41 02 00 00 00 00 00  Length = 236000 BitCount = 122
1476.400833 1  207             Rx   d 8 BE 0C 32 42 CB 0C C5 0C  Length = 222000 BitCount = 115
1476.401077 1  18E             Rx   d 8 49 41 02 00 00 00 00 00  Length = 236000 BitCount = 122
1476.401325 1  18D             Rx   d 8 00 00 00 00 00 00 00 00  Length = 240000 BitCount = 124
1476.401560 1  20B             Rx   d 8 C0 0C 5A 04 C9 0C C5 0C  Length = 226000 BitCount = 117
1476.401796 1  20D             Rx   d 8 C2 0C 12 02 C8 0C C4 0C  Length = 228000 BitCount = 118
1476.402030 1  287             Rx   d 8 10 01 11 03 10 04 26 06  Length = 226000 BitCount = 117
1476.402266 1  289             Rx   d 8 0F 07 10 01 0F 04 06 06  Length = 228000 BitCount = 118
1476.402502 1  28B             Rx   d 8 10 02 11 01 10 04 06 06  Length = 228000 BitCount = 118
1476.402736 1  28D             Rx   d 8 0F 09 10 01 0F 04 06 06  Length = 226000 BitCount = 117
1476.402968 1  307             Rx   d 8 92 FD 43 15 AE 00 21 2E  Length = 224000 BitCount = 116
1476.403196 1  309             Rx   d 8 DC FD 43 15 B0 00 21 2E  Length = 220000 BitCount = 114
1476.403424 1  30B             Rx   d 8 A8 FD 42 15 AE 00 21 2E  Length = 220000 BitCount = 114
1476.403652 1  30D             Rx   d 8 B4 FD 42 15 B0 00 21 2E  Length = 220000 BitCount = 114
1476.403888 1  387             Rx   d 8 40 01 00 0F 80 04 96 3C  Length = 228000 BitCount = 118
1476.404124 1  389             Rx   d 8 40 01 00 0F 60 04 96 3F  Length = 228000 BitCount = 118
1476.404362 1  38B             Rx   d 8 40 01 00 0F 80 04 96 40  Length = 230000 BitCount = 119
1476.404596 1  38D             Rx   d 8 40 01 00 0F 60 04 96 3D  Length = 226000 BitCount = 117
1476.404824 1  407             Rx   d 8 14 AC AC AC A6 A6 AE AE  Length = 220000 BitCount = 114
1476.405054 1  409             Rx   d 8 14 B0 B0 B0 A8 A8 B0 B0  Length = 222000 BitCount = 115
1476.405280 1  40B             Rx   d 8 14 AE AE AE A6 A6 AE AE  Length = 218000 BitCount = 113
1476.405509 1  40D             Rx   d 8 14 AE AE AE A8 A8 B0 B0  Length = 220000 BitCount = 114
1476.405623 1  709             Rx   d 1 05  Length = 106000 BitCount = 57
1476.406411 2  440             Rx   d 4 00 02 00 00  Length = 168000 BitCount = 88
1476.406549 2  3FF             Rx   d 2 00 0B  Length = 130000 BitCount = 69
1476.416401 2  440             Rx   d 4 00 02 00 00  Length = 168000 BitCount = 88
1476.416539 2  3FF             Rx   d 2 00 0B  Length = 130000 BitCount = 69
1476.418324 1  50              Rx   d 0  Length = 92000 BitCount = 50
1476.418594 1  185             Rx   d 8 00 00 00 00 00 00 00 00  Length = 240000 BitCount = 124
1476.418864 1  385             Rx   d 8 00 00 00 00 00 00 09 02  Length = 240000 BitCount = 124
1476.419112 1  187             Rx   d 8 00 00 00 00 00 00 00 00  Length = 240000 BitCount = 124
1476.419356 1  188             Rx   d 8 49 42 02 00 00 00 00 00  Length = 236000 BitCount = 122
1476.419604 1  189             Rx   d 8 00 00 00 00 00 00 00 00  Length = 240000 BitCount = 124
1476.419849 1  18A             Rx   d 8 49 42 02 00 00 00 00 00  Length = 236000 BitCount = 122
1476.420097 1  18D             Rx   d 8 00 00 00 00 00 00 00 00  Length = 240000 BitCount = 124
1476.420349 1  18B             Rx   d 8 00 00 00 00 00 00 00 00  Length = 244000 BitCount = 126
1476.420591 1  18C             Rx   d 8 49 42 02 00 00 00 00 00  Length = 234000 BitCount = 121
1476.420821 1  207             Rx   d 8 BE 0C 32 42 CB 0C C5 0C  Length = 222000 BitCount = 115
1476.421063 1  18E             Rx   d 8 49 42 02 00 00 00 00 00  Length = 234000 BitCount = 121
1476.421293 1  209             Rx   d 8 C0 0C 36 2B CA 0C C5 0C  Length = 222000 BitCount = 115
1476.421527 1  20B             Rx   d 8 C0 0C 5A 04 C9 0C C5 0C  Length = 226000 BitCount = 117
1476.421761 1  20D             Rx   d 8 C1 0C 18 02 C8 0C C4 0C  Length = 226000 BitCount = 117
1476.421997 1  287             Rx   d 8 10 01 11 03 10 04 06 06  Length = 228000 BitCount = 118
1476.422234 1  289             Rx   d 8 0F 07 10 01 0F 04 06 06  Length = 228000 BitCount = 118
1476.422470 1  28B             Rx   d 8 10 02 11 01 10 04 06 06  Length = 228000 BitCount = 118
1476.422704 1  28D             Rx   d 8 0F 09 10 01 0F 04 06 06  Length = 226000 BitCount = 117
1476.422936 1  307             Rx   d 8 96 FD 43 15 AE 00 21 2E  Length = 224000 BitCount = 116
1476.423168 1  309             Rx   d 8 DC FD 44 15 B0 00 21 2E  Length = 224000 BitCount = 116
1476.423396 1  30B             Rx   d 8 AA FD 42 15 AE 00 21 2E  Length = 220000 BitCount = 114
1476.423624 1  30D             Rx   d 8 B6 FD 42 15 B0 00 21 2E  Length = 220000 BitCount = 114
1476.423862 1  387             Rx   d 8 40 01 00 0F 80 04 96 3D  Length = 230000 BitCount = 119
1476.424098 1  389             Rx   d 8 40 01 00 0F 60 04 96 40  Length = 228000 BitCount = 118
1476.424339 1  38B             Rx   d 8 40 01 00 0F 80 04 96 41  Length = 232000 BitCount = 120
1476.424575 1  38D             Rx   d 8 40 01 00 0F 60 04 96 3E  Length = 228000 BitCount = 118
1476.424803 1  407             Rx   d 8 14 AC AC AC A6 A6 AE AE  Length = 220000 BitCount = 114
1476.425033 1  409             Rx   d 8 14 B0 B0 B0 A8 A8 B0 B0  Length = 222000 BitCount = 115
1476.425259 1  40B             Rx   d 8 14 AE AE AE A6 A6 AE AE  Length = 218000 BitCount = 113
1476.425487 1  40D             Rx   d 8 14 AE AE AE A8 A8 B0 B0  Length = 220000 BitCount = 114
1476.426411 2  440             Rx   d 4 00 02 00 00  Length = 168000 BitCount = 88
1476.426549 2  3FF             Rx   d 2 00 0B  Length = 130000 BitCount = 69
1476.432704 1  70D             Rx   d 1 05  Length = 106000 BitCount = 57
1476.436409 2  440             Rx   d 4 00 02 00 00  Length = 168000 BitCount = 88
1476.436547 2  3FF             Rx   d 2 00 0B  Length = 130000 BitCount = 69
1476.437740 1  70B             Rx   d 1 05  Length = 106000 BitCount = 57
1476.438363 1  50              Rx   d 0  Length = 92000 BitCount = 50
1476.438633 1  185             Rx   d 8 00 00 00 00 00 00 00 00  Length = 240000 BitCount = 124
1476.439069 1  385             Rx   d 8 00 00 00 00 00 00 19 03  Length = 240000 BitCount = 124
1476.439321 1  18B             Rx   d 8 00 00 00 00 00 00 00 00  Length = 244000 BitCount = 126
1476.439563 1  188             Rx   d 8 49 43 02 00 00 00 00 00  Length = 234000 BitCount = 121
1476.439811 1  189             Rx   d 8 00 00 00 00 00 00 00 00  Length = 240000 BitCount = 124
1476.440059 1  187             Rx   d 8 00 00 00 00 00 00 00 00  Length = 240000 BitCount = 124
1476.440300 1  18A             Rx   d 8 49 43 02 00 00 00 00 00  Length = 232000 BitCount = 120
1476.440548 1  18D             Rx   d 8 00 00 00 00 00 00 00 00  Length = 240000 BitCount = 124
1476.440792 1  18C             Rx   d 8 49 43 02 00 00 00 00 00  Length = 236000 BitCount = 122
1476.441022 1  207             Rx   d 8 BE 0C 32 42 CB 0C C5 0C  Length = 222000 BitCount = 115
1476.441264 1  18E             Rx   d 8 49 43 02 00 00 00 00 00  Length = 234000 BitCount = 121
1476.441494 1  209             Rx   d 8 C0 0C 36 2B CA 0C C5 0C  Length = 222000 BitCount = 115
1476.441724 1  20B             Rx   d 8 C0 0C 5A 05 C9 0C C5 0C  Length = 222000 BitCount = 115
1476.441958 1  20D             Rx   d 8 C1 0C 18 02 C8 0C C4 0C  Length = 226000 BitCount = 117
1476.442194 1  287             Rx   d 8 10 01 11 03 10 04 06 06  Length = 228000 BitCount = 118
1476.442430 1  289             Rx   d 8 0F 07 10 01 0F 04 06 06  Length = 228000 BitCount = 118
1476.442666 1  28B             Rx   d 8 10 02 11 01 10 04 06 06  Length = 228000 BitCount = 118
1476.442900 1  28D             Rx   d 8 0F 09 10 01 0F 04 06 06  Length = 226000 BitCount = 117
1476.443130 1  307             Rx   d 8 98 FD 43 15 AE 00 21 2E  Length = 222000 BitCount = 115
1476.443362 1  309             Rx   d 8 DA FD 44 15 B0 00 21 2E  Length = 224000 BitCount = 116
1476.443592 1  30B             Rx   d 8 AC FD 41 15 AE 00 21 2E  Length = 222000 BitCount = 115
1476.443820 1  30D             Rx   d 8 B6 FD 42 15 B0 00 21 2E  Length = 220000 BitCount = 114
1476.444062 1  387             Rx   d 8 40 01 00 0F 80 04 96 3E  Length = 234000 BitCount = 121
1476.444300 1  389             Rx   d 8 40 01 00 0F 60 04 96 41  Length = 230000 BitCount = 119
1476.444540 1  38B             Rx   d 8 40 01 00 0F 80 04 96 42  Length = 232000 BitCount = 120
1476.444776 1  38D             Rx   d 8 40 01 00 0F 60 04 96 3F  Length = 228000 BitCount = 118
1476.445004 1  407             Rx   d 8 14 AC AC AC A6 A6 AE AE  Length = 220000 BitCount = 114
1476.445234 1  409             Rx   d 8 14 B0 B0 B0 A8 A8 B0 B0  Length = 222000 BitCount = 115
1476.445460 1  40B             Rx   d 8 14 AE AE AE A6 A6 AE AE  Length = 218000 BitCount = 113
1476.445688 1  40D             Rx   d 8 14 AE AE AE A8 A8 B0 B0  Length = 220000 BitCount = 114
1476.446424 2  440             Rx   d 4 00 02 00 00  Length = 168000 BitCount = 88
1476.446560 2  3FF             Rx   d 2 FE 0A  Length = 128000 BitCount = 68
1476.456420 2  440             Rx   d 4 00 02 00 00  Length = 168000 BitCount = 88
1476.456558 2  3FF             Rx   d 2 00 0B  Length = 130000 BitCount = 69
1476.458323 1  50              Rx   d 0  Length = 92000 BitCount = 50
1476.458593 1  185             Rx   d 8 00 00 00 00 00 00 00 00  Length = 240000 BitCount = 124
1476.458861 1  385             Rx   d 8 00 00 00 00 00 00 01 04  Length = 238000 BitCount = 123
1476.459109 1  18D             Rx   d 8 00 00 00 00 00 00 00 00  Length = 240000 BitCount = 124
1476.459354 1  188             Rx   d 8 49 44 02 00 00 00 00 00  Length = 236000 BitCount = 122
1476.459590 1  20D             Rx   d 8 C2 0C 12 02 C8 0C C4 0C  Length = 228000 BitCount = 118
1476.459830 1  18A             Rx   d 8 49 44 02 00 00 00 00 00  Length = 232000 BitCount = 120
1476.460078 1  187             Rx   d 8 00 00 00 00 00 00 00 00  Length = 240000 BitCount = 124
1476.460330 1  18B             Rx   d 8 00 00 00 00 00 00 00 00  Length = 244000 BitCount = 126
1476.460572 1  Statistic: D 3782079 R 0 XD 0 XR 0 E 0 O 0 B 36.0%
1476.460572 2  Statistic: D 570795 R 0 XD 0 XR 0 E 0 O 0 B 3.0%
1476.460572 1  18C             Rx   d 8 49 44 02 00 00 00 00 00  Length = 234000 BitCount = 121
1476.460820 1  189             Rx   d 8 00 00 00 00 00 00 00 00  Length = 240000 BitCount = 124
1476.461064 1  18E             Rx   d 8 49 44 02 00 00 00 00 00  Length = 236000 BitCount = 122
1476.461294 1  207             Rx   d 8 BE 0C 32 42 CB 0C C5 0C  Length = 222000 BitCount = 115
1476.461524 1  209             Rx   d 8 C0 0C 36 2B CA 0C C5 0C  Length = 222000 BitCount = 115
1476.461754 1  20B             Rx   d 8 C0 0C 5A 05 C9 0C C5 0C  Length = 222000 BitCount = 115
1476.461990 1  287             Rx   d 8 10 01 11 03 10 04 06 06  Length = 228000 BitCount = 118
1476.462226 1  289             Rx   d 8 0F 07 10 01 0F 04 06 06  Length = 228000 BitCount = 118
1476.462462 1  28B             Rx   d 8 10 02 11 01 10 04 06 06  Length = 228000 BitCount = 118
1476.462696 1  28D             Rx   d 8 0F 09 10 01 0F 04 06 06  Length = 226000 BitCount = 117
1476.462929 1  307             Rx   d 8 94 FD 43 15 AE 00 21 2E  Length = 224000 BitCount = 116
1476.463161 1  309             Rx   d 8 DE FD 44 15 B0 00 21 2E  Length = 224000 BitCount = 116
1476.463391 1  30B             Rx   d 8 AC FD 41 15 AE 00 21 2E  Length = 222000 BitCount = 115
1476.463619 1  30D             Rx   d 8 B2 FD 42 15 B0 00 21 2E  Length = 220000 BitCount = 114
1476.463857 1  387             Rx   d 8 40 01 00 0F 80 04 96 3F  Length = 230000 BitCount = 119
1476.464091 1  389             Rx   d 8 40 01 00 0F 60 04 96 42  Length = 226000 BitCount = 117
1476.464327 1  38B             Rx   d 8 40 01 00 0F 80 04 96 43  Length = 228000 BitCount = 118
1476.464567 1  38D             Rx   d 8 40 01 00 0F 60 04 96 40  Length = 232000 BitCount = 120
1476.464795 1  407             Rx   d 8 14 AC AC AC A6 A6 AE AE  Length = 220000 BitCount = 114
1476.465025 1  409             Rx   d 8 14 B0 B0 B0 A8 A8 B0 B0  Length = 222000 BitCount = 115
1476.465251 1  40B             Rx   d 8 14 AE AE AE A6 A6 AE AE  Length = 218000 BitCount = 113
1476.465479 1  40D             Rx   d 8 14 AE AE AE A8 A8 B0 B0  Length = 220000 BitCount = 114
1476.466434 2  440             Rx   d 4 00 02 00 00  Length = 168000 BitCount = 88
1476.466572 2  3FF             Rx   d 2 00 0B  Length = 130000 BitCount = 69
1476.472719 1  707             Rx   d 1 05  Length = 108000 BitCount = 58
1476.476428 2  440             Rx   d 4 00 02 00 00  Length = 168000 BitCount = 88
1476.476566 2  3FF             Rx   d 2 00 0B  Length = 130000 BitCount = 69
1476.478335 1  50              Rx   d 0  Length = 92000 BitCount = 50
1476.478605 1  185             Rx   d 8 00 00 00 00 00 00 00 00  Length = 240000 BitCount = 124
1476.479065 1  385             Rx   d 8 00 00 00 00 00 00 00 05  Length = 238000 BitCount = 123
1476.479331 1  188             Rx   d 8 49 45 02 00 00 00 00 00  Length = 236000 BitCount = 122
1476.479579 1  189             Rx   d 8 00 00 00 00 00 00 00 00  Length = 240000 BitCount = 124
1476.479819 1  18A             Rx   d 8 49 45 02 00 00 00 00 00  Length = 232000 BitCount = 120
1476.480067 1  187             Rx   d 8 00 00 00 00 00 00 00 00  Length = 240000 BitCount = 124
1476.480319 1  18B             Rx   d 8 00 00 00 00 00 00 00 00  Length = 244000 BitCount = 126
1476.480561 1  18C             Rx   d 8 49 45 02 00 00 00 00 00  Length = 234000 BitCount = 121
1476.480810 1  18D             Rx   d 8 00 00 00 00 00 00 00 00  Length = 240000 BitCount = 124
1476.481050 1  18E             Rx   d 8 49 45 02 00 00 00 00 00  Length = 232000 BitCount = 120
1476.481280 1  207             Rx   d 8 BE 0C 32 42 CB 0C C5 0C  Length = 222000 BitCount = 115
1476.481510 1  209             Rx   d 8 C0 0C 36 2B CA 0C C5 0C  Length = 222000 BitCount = 115
1476.481744 1  20B             Rx   d 8 C0 0C 5A 04 C9 0C C5 0C  Length = 226000 BitCount = 117
1476.481974 1  20D             Rx   d 8 C2 0C 16 02 C9 0C C5 0C  Length = 222000 BitCount = 115
1476.482210 1  287             Rx   d 8 10 01 11 03 10 04 06 06  Length = 228000 BitCount = 118
1476.482446 1  289             Rx   d 8 0F 07 10 01 0F 04 06 06  Length = 228000 BitCount = 118
1476.482682 1  28B             Rx   d 8 10 02 11 01 10 04 06 06  Length = 228000 BitCount = 118
1476.482916 1  28D             Rx   d 8 0F 09 10 01 0F 04 06 06  Length = 226000 BitCount = 117
1476.483148 1  307             Rx   d 8 9A FD 44 15 AE 00 21 2E  Length = 224000 BitCount = 116
1476.483378 1  309             Rx   d 8 E0 FD 43 15 B0 00 21 2E  Length = 222000 BitCount = 115
1476.483609 1  30B             Rx   d 8 B2 FD 42 15 AE 00 21 2E  Length = 222000 BitCount = 115
1476.483839 1  30D             Rx   d 8 BA FD 43 15 B0 00 21 2E  Length = 222000 BitCount = 115
1476.484079 1  387             Rx   d 8 40 01 00 0F 80 04 96 40  Length = 232000 BitCount = 120
1476.484313 1  389             Rx   d 8 40 01 00 0F 60 04 96 43  Length = 226000 BitCount = 117
1476.484549 1  38B             Rx   d 8 40 01 00 0F 80 04 96 44  Length = 228000 BitCount = 118
1476.484785 1  38D             Rx   d 8 40 01 00 0F 60 04 96 41  Length = 228000 BitCount = 118
1476.485012 1  407             Rx   d 8 14 AC AC AC A6 A6 AE AE  Length = 220000 BitCount = 114
1476.485243 1  409             Rx   d 8 14 B0 B0 B0 A8 A8 B0 B0  Length = 222000 BitCount = 115
1476.485468 1  40B             Rx   d 8 14 AE AE AE A6 A6 AE AE  Length = 218000 BitCount = 113
1476.485697 1  40D             Rx   d 8 14 AE AE AE A8 A8 B0 B0  Length = 220000 BitCount = 114
1476.486455 2  440             Rx   d 4 00 02 00 00  Length = 168000 BitCount = 88
1476.486593 2  3FF             Rx   d 2 00 0B  Length = 130000 BitCount = 69
1476.496441 2  440             Rx   d 4 00 02 00 00  Length = 168000 BitCount = 88
1476.496579 2  3FF             Rx   d 2 00 0B  Length = 130000 BitCount = 69
1476.498328 1  50              Rx   d 0  Length = 92000 BitCount = 50
1476.498598 1  185             Rx   d 8 00 00 00 00 00 00 00 00  Length = 240000 BitCount = 124
1476.498936 1  187             Rx   d 8 00 00 00 00 00 00 00 00  Length = 240000 BitCount = 124
1476.499188 1  18B             Rx   d 8 00 00 00 00 00 00 00 00  Length = 244000 BitCount = 126
1476.499436 1  18D             Rx   d 8 00 00 00 00 00 00 00 00  Length = 240000 BitCount = 124
1476.499684 1  189             Rx   d 8 00 00 00 00 00 00 00 00  Length = 240000 BitCount = 124
1476.499916 1  207             Rx   d 8 BE 0C 32 40 CB 0C C5 0C  Length = 224000 BitCount = 116
1476.500146 1  209             Rx   d 8 C0 0C 36 2B CA 0C C5 0C  Length = 222000 BitCount = 115
1476.500381 1  20B             Rx   d 8 C0 0C 5A 04 C9 0C C5 0C  Length = 226000 BitCount = 117
1476.500611 1  20D             Rx   d 8 C2 0C 1A 02 C9 0C C5 0C  Length = 222000 BitCount = 115
1476.500847 1  287             Rx   d 8 10 01 11 03 10 04 06 06  Length = 228000 BitCount = 118
1476.501083 1  289             Rx   d 8 0F 07 10 01 0F 04 06 06  Length = 228000 BitCount = 118
1476.501319 1  28B             Rx   d 8 10 02 11 01 10 04 06 06  Length = 228000 BitCount = 118
1476.501553 1  28D             Rx   d 8 0F 09 10 01 0F 04 26 06  Length = 226000 BitCount = 117
1476.501785 1  307             Rx   d 8 9A FD 44 15 AE 00 21 2E  Length = 224000 BitCount = 116
1476.502015 1  309             Rx   d 8 E0 FD 43 15 B0 00 21 2E  Length = 222000 BitCount = 115
1476.502243 1  30B             Rx   d 8 B6 FD 42 15 AE 00 21 2E  Length = 220000 BitCount = 114
1476.502471 1  30D             Rx   d 8 B8 FD 43 15 B0 00 21 2E  Length = 220000 BitCount = 114
1476.502718 1  385             Rx   d 8 00 00 00 00 00 00 01 00  Length = 238000 BitCount = 123
1476.502956 1  387             Rx   d 8 40 01 00 0F 80 04 96 41  Length = 230000 BitCount = 119
1476.503198 1  188             Rx   d 8 49 46 02 00 00 00 00 00  Length = 234000 BitCount = 121
1476.503432 1  389             Rx   d 8 40 01 00 0F 60 04 96 44  Length = 226000 BitCount = 117
1476.503674 1  18A             Rx   d 8 49 46 02 00 00 00 00 00  Length = 234000 BitCount = 121
1476.503912 1  38B             Rx   d 8 40 01 00 0F 80 04 96 45  Length = 230000 BitCount = 119
1476.504154 1  18C             Rx   d 8 49 46 02 00 00 00 00 00  Length = 234000 BitCount = 121
1476.504388 1  38D             Rx   d 8 40 01 00 0F 60 04 96 42  Length = 226000 BitCount = 117
1476.504628 1  18E             Rx   d 8 49 46 02 00 00 00 00 00  Length = 232000 BitCount = 120
1476.504857 1  407             Rx   d 8 14 AC AC AC A6 A6 AE AE  Length = 220000 BitCount = 114
1476.505087 1  409             Rx   d 8 14 B0 B0 B0 A8 A8 B0 B0  Length = 222000 BitCount = 115
1476.505313 1  40B             Rx   d 8 14 AE AE AE A6 A6 AE AE  Length = 218000 BitCount = 113
1476.505541 1  40D             Rx   d 8 14 AE AE AE A8 A8 B0 B0  Length = 220000 BitCount = 114
1476.505655 1  709             Rx   d 1 05  Length = 106000 BitCount = 57
1476.506467 2  440             Rx   d 4 00 02 00 00  Length = 168000 BitCount = 88
1476.506603 2  3FF             Rx   d 2 FE 0A  Length = 128000 BitCount = 68
1476.516451 2  440             Rx   d 4 00 02 00 00  Length = 168000 BitCount = 88
1476.516589 2  3FF             Rx   d 2 00 0B  Length = 130000 BitCount = 69
1476.518326 1  50              Rx   d 0  Length = 92000 BitCount = 50
1476.518596 1  185             Rx   d 8 00 00 00 00 00 00 00 00  Length = 240000 BitCount = 124
1476.518866 1  385             Rx   d 8 00 00 00 00 00 00 02 01  Length = 240000 BitCount = 124
1476.519114 1  187             Rx   d 8 00 00 00 00 00 00 00 00  Length = 240000 BitCount = 124
1476.519357 1  188             Rx   d 8 49 47 02 00 00 00 00 00  Length = 234000 BitCount = 121
1476.519605 1  189             Rx   d 8 00 00 00 00 00 00 00 00  Length = 240000 BitCount = 124
1476.519845 1  18A             Rx   d 8 49 47 02 00 00 00 00 00  Length = 232000 BitCount = 120
1476.520075 1  207             Rx   d 8 BE 0C 32 42 CB 0C C5 0C  Length = 222000 BitCount = 115
1476.520327 1  18B             Rx   d 8 00 00 00 00 00 00 00 00  Length = 244000 BitCount = 126
1476.520569 1  18C             Rx   d 8 49 47 02 00 00 00 00 00  Length = 234000 BitCount = 121
1476.520801 1  209             Rx   d 8 C0 0C 36 16 CA 0C C5 0C  Length = 224000 BitCount = 116
1476.521041 1  18E             Rx   d 8 49 47 02 00 00 00 00 00  Length = 232000 BitCount = 120
1476.521290 1  18D             Rx   d 8 00 00 00 00 00 00 00 00  Length = 240000 BitCount = 124
1476.521524 1  20B             Rx   d 8 C0 0C 5A 04 C9 0C C5 0C  Length = 226000 BitCount = 117
1476.521754 1  20D             Rx   d 8 C2 0C 1A 02 C9 0C C5 0C  Length = 222000 BitCount = 115
1476.521990 1  287             Rx   d 8 10 01 11 03 10 04 06 06  Length = 228000 BitCount = 118
1476.522226 1  289             Rx   d 8 0F 07 10 01 0F 04 06 06  Length = 228000 BitCount = 118
1476.522462 1  28B             Rx   d 8 10 02 11 01 10 04 06 06  Length = 228000 BitCount = 118
1476.522696 1  28D             Rx   d 8 0F 09 10 01 0F 04 26 06  Length = 226000 BitCount = 117
1476.522928 1  307             Rx   d 8 98 FD 44 15 AE 00 21 2E  Length = 224000 BitCount = 116
1476.523158 1  309             Rx   d 8 E4 FD 43 15 B0 00 21 2E  Length = 222000 BitCount = 115
1476.523386 1  30B             Rx   d 8 B0 FD 43 15 AE 00 21 2E  Length = 220000 BitCount = 114
1476.523616 1  30D             Rx   d 8 B6 FD 43 15 B0 00 21 2E  Length = 222000 BitCount = 115
1476.523854 1  387             Rx   d 8 40 01 00 0F 80 04 96 42  Length = 230000 BitCount = 119
1476.524088 1  389             Rx   d 8 40 01 00 0F 60 04 96 45  Length = 226000 BitCount = 117
1476.524324 1  38B             Rx   d 8 40 01 00 0F 80 04 96 46  Length = 228000 BitCount = 118
1476.524558 1  38D             Rx   d 8 40 01 00 0F 60 04 96 43  Length = 226000 BitCount = 117
1476.524786 1  407             Rx   d 8 14 AC AC AC A6 A6 AE AE  Length = 220000 BitCount = 114
1476.525016 1  409             Rx   d 8 14 B0 B0 B0 A8 A8 B0 B0  Length = 222000 BitCount = 115
1476.525242 1  40B             Rx   d 8 14 AE AE AE A6 A6 AE AE  Length = 218000 BitCount = 113
1476.525470 1  40D             Rx   d 8 14 AE AE AE A8 A8 B0 B0  Length = 220000 BitCount = 114
1476.526469 2  440             Rx   d 4 00 02 00 00  Length = 168000 BitCount = 88
1476.526608 2  3FF             Rx   d 2 00 0B  Length = 130000 BitCount = 69
1476.531718 1  70D             Rx   d 1 05  Length = 106000 BitCount = 57
1476.536460 2  440             Rx   d 4 00 02 00 00  Length = 168000 BitCount = 88
1476.536598 2  3FF             Rx   d 2 00 0B  Length = 130000 BitCount = 69
1476.537750 1  70B             Rx   d 1 05  Length = 106000 BitCount = 57
1476.538342 1  50              Rx   d 0  Length = 92000 BitCount = 50
1476.538612 1  185             Rx   d 8 00 00 00 00 00 00 00 00  Length = 240000 BitCount = 124
1476.539004 1  187             Rx   d 8 00 00 00 00 00 00 00 00  Length = 240000 BitCount = 124
1476.539252 1  385             Rx   d 8 00 00 00 00 00 00 09 02  Length = 240000 BitCount = 124
1476.539482 1  207             Rx   d 8 BE 0C 32 42 CB 0C C5 0C  Length = 222000 BitCount = 115
1476.539724 1  188             Rx   d 8 49 48 02 00 00 00 00 00  Length = 234000 BitCount = 121
1476.539973 1  189             Rx   d 8 00 00 00 00 00 00 00 00  Length = 240000 BitCount = 124
1476.540213 1  18A             Rx   d 8 49 48 02 00 00 00 00 00  Length = 232000 BitCount = 120
